(1706595993.946509) can0 068#6800000101000000
(1706595993.946510) can0 0C7#01914AD6C3C2018D
(1706595993.946510) can0 0C0#0000000001000000
(1706595993.947834) can0 0C4#220022002D059100
(1706595993.947835) can0 0C6#0000000000000000
(1706595993.953260) can0 0AD#7A00000000000000
(1706595993.953261) can0 0AC#0000FFFFE3DC0D00
(1706595993.953261) can0 0AB#0000000000180040
(1706595993.953261) can0 0AA#0700090000008002
(1706595993.953262) can0 0A8#2200AE52F6FFFEFF
(1706595993.954419) can0 0A7#050000000A000600
(1706595993.954420) can0 0A6#FCFFF9FFF9FF0000
(1706595993.954420) can0 0A5#C605E6FFD4FF4AFF
(1706595993.954420) can0 0A4#0000000000000000
(1706595993.954420) can0 0A3#EBB1B71EECB5D71E
(1706595993.962185) can0 0AD#B500000000000000
(1706595993.962186) can0 0AC#00000200E6DC0D00
(1706595993.962187) can0 0AB#0000000000180040
(1706595993.962187) can0 6B2#0000B809B8093461
(1706595993.970456) can0 6B1#00000000151314F5
(1706595993.995861) can0 1839F380#00131514470001C5
(1706595993.995861) can0 068#6800000101000000
(1706595993.995862) can0 0C7#01914AD6C3C2018D
(1706595993.995862) can0 0C0#0000000001000000
(1706595994.019044) can0 0C4#220022002D059C00
(1706595994.019046) can0 0C6#0000000000000000
(1706595994.020185) can0 6B2#0000B809B8093461
(1706595994.021071) can0 0AD#B400000000000000
(1706595994.021072) can0 0AC#0000FDFFF8DC0D00
(1706595994.021072) can0 0AB#0000000000180040
(1706595994.021072) can0 0AA#0700090000008002
(1706595994.021073) can0 0A8#2200AE520D00F5FF
(1706595994.021541) can0 0A7#06000000FDFF0300
(1706595994.021541) can0 0A6#07000A0007000000
(1706595994.021542) can0 0A5#8F072A00450054FF
(1706595994.021542) can0 0A4#0000000000000000
(1706595994.021548) can0 0A3#EBB5D71EECB5E71E
(1706595994.025173) can0 0AD#3B00000000000000
(1706595994.025174) can0 0AC#00000000FBDC0D00
(1706595994.025174) can0 0AB#0000000000180040
(1706595994.025174) can0 0AA#0700090000008002
(1706595994.025174) can0 0A8#2200AE5201000000
(1706595994.026360) can0 0A7#0400000003000600
(1706595994.026361) can0 0A6#0100FCFFFCFF0000
(1706595994.026361) can0 0A5#62070B00110056FF
(1706595994.026361) can0 0A4#0000000000000000
(1706595994.026361) can0 0A3#EBB5C71EECB5E71E
(1706595994.034154) can0 0AD#7500000000000000
(1706595994.034155) can0 0AC#00000100FEDC0D00
(1706595994.034155) can0 0AB#0000000000180040
(1706595994.034155) can0 0AA#0700090000008002
(1706595994.034155) can0 0A8#2200AE5203000200
(1706595994.035608) can0 0A7#0400000001000300
(1706595994.035609) can0 0A6#FFFFFFFF07000000
(1706595994.035609) can0 0A5#5706DBFFC1FF57FF
(1706595994.035610) can0 0A4#0000000000000000
(1706595994.035610) can0 0A3#ECB5C71EEDB5E71E
(1706595994.046473) can0 068#6800000101000000
(1706595994.046474) can0 0C7#00914ADAC2C2018D
(1706595994.046474) can0 0C0#0000000001000000
(1706595994.047761) can0 0C4#220022002D05A000
(1706595994.047761) can0 0C6#0000000000000000
(1706595994.077677) can0 6B2#0000B809B8093461
(1706595994.078481) can0 0AD#1300000000000000
(1706595994.078481) can0 0AC#0000010007DD0D00
(1706595994.078481) can0 0AB#0000000000180040
(1706595994.078482) can0 0AA#0700090000008002
(1706595994.078482) can0 0A8#2200AE52F8FF0200
(1706595994.079159) can0 0A7#070000000100FAFF
(1706595994.079159) can0 0A6#FBFFFBFFF9FF0000
(1706595994.079159) can0 0A5#C506CFFFADFF60FF
(1706595994.079159) can0 0A4#0000000000000000
(1706595994.079159) can0 0A3#EBB5C71EECB5D71E
(1706595994.079400) can0 0AD#9C00000000000000
(1706595994.079401) can0 0AC#000002000ADD0D00
(1706595994.079402) can0 0AB#0000000000180040
(1706595994.079402) can0 0AA#0700090000008002
(1706595994.079402) can0 0A8#2200AE52F5FF0500
(1706595994.080038) can0 0A7#010000000C000000
(1706595994.080039) can0 0A6#F6FFFFFFFCFF0000
(1706595994.080039) can0 0A5#0806D5FFB8FF6AFF
(1706595994.080039) can0 0A4#0000000000000000
(1706595994.080040) can0 0A3#EBB5D71EEBB1E71E
(1706595994.080214) can0 6B1#00000000151314F5
(1706595994.095871) can0 1839F380#00131514470001C5
(1706595994.095871) can0 068#6800000101000000
(1706595994.095871) can0 0C7#00914ADAC2C2018D
(1706595994.095872) can0 0C0#0000000001000000
(1706595994.098146) can0 0C4#220022002D059000
(1706595994.098147) can0 0C6#0000000000000000
(1706595994.106362) can0 0AD#AD00000000000000
(1706595994.106363) can0 0AC#0000020016DD0D00
(1706595994.106363) can0 6B2#0000B809B8093461
(1706595994.133285) can0 0AD#0700000000000000
(1706595994.133286) can0 0AC#000001001FDD0D00
(1706595994.133286) can0 0AB#0000000000180040
(1706595994.133287) can0 0AA#0700090000008002
(1706595994.133287) can0 0A8#2200AE52FAFF0300
(1706595994.134519) can0 0A7#0600000005000000
(1706595994.134520) can0 0A6#FAFF000000000000
(1706595994.134520) can0 0A5#0006C4FF9CFF67FF
(1706595994.134521) can0 0A4#0000000000000000
(1706595994.134521) can0 0A3#EBB5C71EECB5D71E
(1706595994.142291) can0 0AD#8A00000000000000
(1706595994.142292) can0 0AC#0000FFFF22DD0D00
(1706595994.142292) can0 0AB#0000000000180040
(1706595994.142293) can0 0AA#0700090000008002
(1706595994.142293) can0 0A8#2200AE52FDFFFEFF
(1706595994.143456) can0 0A7#040000000300FEFF
(1706595994.143457) can0 0A6#0000FDFF00000000
(1706595994.143457) can0 0A5#AF05E4FFD1FF66FF
(1706595994.143457) can0 0A4#0000000000000000
(1706595994.143457) can0 0A3#EBB5C71EECB5D71E
(1706595994.164629) can0 068#6800000101000000
(1706595994.164630) can0 0C7#00914AD7C1C1018D
(1706595994.164630) can0 0C0#0000000001000000
(1706595994.164832) can0 0C4#220022002D058E00
(1706595994.164833) can0 0C6#0000000000000000
(1706595994.166051) can0 6B2#0000B809B8093461
(1706595994.166601) can0 0AD#2900000000000000
(1706595994.166601) can0 0AC#0000FFFF28DD0D00
(1706595994.166601) can0 0AB#0000000000180040
(1706595994.166602) can0 0AA#0700090000008002
(1706595994.166602) can0 0A8#2200AE521000FEFF
(1706595994.166817) can0 0A7#0200000001000A00
(1706595994.166818) can0 0A6#0800080005000000
(1706595994.166819) can0 0A5#22061800270069FF
(1706595994.166819) can0 0A4#0000000000000000
(1706595994.166820) can0 0A3#EBB5C71EECB5E71E
(1706595994.178527) can0 6B1#00000000151314F5
(1706595994.195863) can0 1839F380#00131514470001C5
(1706595994.195864) can0 0AD#A000000000000000
(1706595994.195864) can0 0AC#0000000034DD0D00
(1706595994.195864) can0 068#6800000101000000
(1706595994.196909) can0 0C0#0000000001000000
(1706595994.196909) can0 0C7#00914AD7C1C1018D
(1706595994.196909) can0 0C4#220022002D058F00
(1706595994.198170) can0 0C6#0000000000000000
(1706595994.202676) can0 6B2#0000B809B8093461
(1706595994.205248) can0 0AD#0F00000000000000
(1706595994.205249) can0 0AC#0000010037DD0D00
(1706595994.205249) can0 0AB#0000000000180040
(1706595994.205249) can0 0AA#0700090000008002
(1706595994.205250) can0 0A8#2200AE52FAFF0200
(1706595994.206451) can0 0A7#0700000003000100
(1706595994.206451) can0 0A6#FDFFFDFFFAFF0000
(1706595994.206451) can0 0A5#F106E1FFCDFF59FF
(1706595994.206452) can0 0A4#0000000000000000
(1706595994.206452) can0 0A3#ECB1C71EECB5E71E
(1706595994.214262) can0 0AD#3B00000000000000
(1706595994.214262) can0 0AC#000000003ADD0D00
(1706595994.214262) can0 0AB#0000000000180040
(1706595994.214262) can0 0AA#0700090000008002
(1706595994.214263) can0 0A8#2200AE5202000000
(1706595994.215517) can0 0A7#0500000001000100
(1706595994.215517) can0 0A6#0000020000000000
(1706595994.215517) can0 0A5#AE071F00330059FF
(1706595994.215517) can0 0A4#0000000000000000
(1706595994.215518) can0 0A3#ECB1D71EECB5E71E
(1706595994.223292) can0 0AD#2500000000000000
(1706595994.223293) can0 0AC#000000003DDD0D00
(1706595994.223293) can0 0AB#0000000000180040
(1706595994.223294) can0 0AA#0700090000008002
(1706595994.223294) can0 0A8#2200AE52FCFF0000
(1706595994.224508) can0 0A7#0000000001000A00
(1706595994.224508) can0 0A6#0000FDFF02000000
(1706595994.224508) can0 0A5#FF06E6FFD5FF56FF
(1706595994.224509) can0 0A4#0000000000000000
(1706595994.224509) can0 0A3#ECB5D71EECB5E71E
(1706595994.246725) can0 068#6800000101000000
(1706595994.246726) can0 0C7#00914AD8C3C1018D
(1706595994.246726) can0 0C0#0000000001000000
(1706595994.247927) can0 0C4#220022002D058E00
(1706595994.247927) can0 0C6#0000000000000000
(1706595994.250638) can0 6B2#0000B809B8093461
(1706595994.284107) can0 6B1#00000000151314F5
(1706595994.307243) can0 1839F380#00131514470001C5
(1706595994.307243) can0 068#6800000101000000
(1706595994.307244) can0 0A7#010000000100FEFF
(1706595994.307510) can0 0A6#0100FFFF02000000
(1706595994.307511) can0 0C0#0000000001000000
(1706595994.307511) can0 0C7#00914AD8C3C1018D
(1706595994.307511) can0 0C4#220022002D059000
(1706595994.308072) can0 0C6#0000000000000000
(1706595994.308073) can0 6B2#0000B809B8093461
(1706595994.346574) can0 068#6800000101000000
(1706595994.346575) can0 0C0#0000000001000000
(1706595994.346575) can0 0C7#01914AD8BEC2018D
(1706595994.346575) can0 6B2#0000B809B8093461
(1706595994.347633) can0 202#0000000000000000
(1706595994.347633) can0 0C4#220022002D058E00
(1706595994.347634) can0 0C6#0000000000000000
(1706595994.358293) can0 0AD#7D00000000000000
(1706595994.358294) can0 0AC#000000006ADD0D00
(1706595994.358294) can0 0AB#0000000000180040
(1706595994.358294) can0 0AA#0700090000008002
(1706595994.358294) can0 0A8#2200AE52FFFF0000
(1706595994.359503) can0 0A7#060000000100FAFF
(1706595994.359504) can0 0A6#0000000005000000
(1706595994.359504) can0 0A5#B405E0FFCBFF60FF
(1706595994.359504) can0 0A4#0000000000000000
(1706595994.359504) can0 0A3#EBB5C71EECB5D71E
(1706595994.386807) can0 6B1#00000000151314F5
(1706595994.386808) can0 0A5#4605FFFFFEFF61FF
(1706595994.386808) can0 0A4#0000000000000000
(1706595994.386809) can0 0A3#EBB9C71EECB5D71E
(1706595994.410237) can0 0AD#7200000000000000
(1706595994.410238) can0 0AC#0000000076DD0D00
(1706595994.410238) can0 6B2#0000B809B8093461
(1706595994.410438) can0 1839F380#00131514470001C5
(1706595994.410439) can0 068#6800000101000000
(1706595994.410439) can0 0C7#01914AD8BEC2018D
(1706595994.411076) can0 0C0#0000000001000000
(1706595994.411076) can0 0C4#220022002D059100
(1706595994.412025) can0 0C6#0000000000000000
(1706595994.412631) can0 0AD#0400000000000000
(1706595994.412631) can0 0AC#0000000079DD0D00
(1706595994.412632) can0 0AB#0000000000180040
(1706595994.412633) can0 0AA#0700090000008002
(1706595994.412633) can0 0A8#2200AE5205000000
(1706595994.412753) can0 0A7#0200000007000300
(1706595994.412754) can0 0A6#02000200F8FF0000
(1706595994.412754) can0 0A5#7605F5FFEEFF5EFF
(1706595994.412754) can0 0A4#0000000000000000
(1706595994.412754) can0 0A3#EBB5D71EECB5E71E
(1706595994.412888) can0 0AD#7400000000000000
(1706595994.412889) can0 0AC#000000007CDD0D00
(1706595994.412889) can0 0AB#0000000000180040
(1706595994.412889) can0 0AA#0700090000008002
(1706595994.414424) can0 0A8#2200AE520500FEFF
(1706595994.414424) can0 0A7#0200000001000000
(1706595994.414425) can0 0A6#0200020003000000
(1706595994.414426) can0 0A5#73061900290055FF
(1706595994.414426) can0 0A4#0000000000000000
(1706595994.414652) can0 0A3#EBB5C71EECB5E71E
(1706595994.440265) can0 3FF#26B82A5C00000000
(1706595994.442722) can0 6B2#0000B809B8093461
(1706595994.446454) can0 068#6800000101000000
(1706595994.446455) can0 0C7#01914AD9C0C2018D
(1706595994.446455) can0 0C0#0000000001000000
(1706595994.447762) can0 0C4#220022002D058E00
(1706595994.447762) can0 0C6#0000000000000000
(1706595994.505562) can0 6B1#00000000151314F5
(1706595994.505563) can0 6B3#B300000000000000
(1706595994.505563) can0 6B2#0000B809B8093461
(1706595994.506118) can0 0AD#0100000000000000
(1706595994.506118) can0 0AC#0000FFFF97DD0D00
(1706595994.506118) can0 0AB#0000000000180040
(1706595994.506118) can0 0AA#0700090000008002
(1706595994.506118) can0 0A8#2200AE52F7FFFDFF
(1706595994.506687) can0 0A7#0200000000000100
(1706595994.506687) can0 0A6#FDFFFAFFFEFF0000
(1706595994.506688) can0 0A5#8905F1FFE6FF43FF
(1706595994.506688) can0 0A4#0000000000000000
(1706595994.506689) can0 0A3#EBB5C71EECB5D71E
(1706595994.507478) can0 1839F380#00131514470001C5
(1706595994.507479) can0 068#6800000101000000
(1706595994.507479) can0 0C7#01914AD9C0C2018D
(1706595994.507480) can0 0C0#0000000001000000
(1706595994.510351) can0 0C4#220022002D059200
(1706595994.510351) can0 0C6#0000000000000000
(1706595994.538530) can0 6B2#0000B809B8093461
(1706595994.538531) can0 0AB#0000000000180040
(1706595994.538532) can0 0AA#0700090000008002
(1706595994.538532) can0 0A8#2200AE5200000100
(1706595994.538532) can0 0A7#060000000000FCFF
(1706595994.539740) can0 0A6#0400010005000000
(1706595994.539741) can0 0A5#D704FFFFFFFF3CFF
(1706595994.539741) can0 0A4#0000000000000000
(1706595994.539742) can0 0A3#EBB9B71EECB5D71E
(1706595994.545378) can0 02A#5E5E5E5E5E5E5E5E
(1706595994.546390) can0 068#6800000101000000
(1706595994.546390) can0 0C7#01914ADABEC2018D
(1706595994.546391) can0 0C0#0000000001000000
(1706595994.547863) can0 0C4#220022002D058F00
(1706595994.547864) can0 0C6#0000000000000000
(1706595994.550482) can0 03A#5F5E5F5E5E5E5E5F
(1706595994.555721) can0 02B#5E5E5E5E5E5E5E5E
(1706595994.560556) can0 06B#5E5F5E5F5E5E5E5F
(1706595994.565302) can0 0AD#4700000000000000
(1706595994.565303) can0 0AC#00000200AFDD0D00
(1706595994.565303) can0 06A#5E5E5E5E5E5E5E5E
(1706595994.570460) can0 04A#5E5E5E5E5E5E5E5E
(1706595994.574255) can0 0AD#8800000000000000
(1706595994.574256) can0 0AE#1000C01915051920
(1706595994.574256) can0 0AC#00000000B2DD0D00
(1706595994.574256) can0 0AB#0000000000180040
(1706595994.574256) can0 0AA#0700090000008002
(1706595994.575387) can0 05A#5E5E5F5E5F5F5E5F
(1706595994.575388) can0 0A9#9600FA00F901DF04
(1706595994.580349) can0 05B#5E5F5E5E5E5E5E5F
(1706595994.585426) can0 01B#5E5F5E5E5F5F5E5F
(1706595994.586725) can0 6B2#0000B809B8093461
(1706595994.590536) can0 04B#5E5E5F5E5E5E5E5F
(1706595994.594745) can0 6B1#00000000151314F5
(1706595994.594746) can0 03B#5E5F5E5E5E5E5E5F
(1706595994.596105) can0 1839F380#00131514470001C5
(1706595994.596106) can0 068#6800000101000000
(1706595994.596106) can0 0C7#01914ADABEC2018D
(1706595994.596106) can0 0C0#0000000001000000
(1706595994.597936) can0 0C4#220022002D058F00
(1706595994.597936) can0 0C6#0000000000000000
(1706595994.600460) can0 01A#5E5F5F5E5F5E5E5F
(1706595994.600460) can0 0AD#6200000000000000
(1706595994.600460) can0 0AC#0000FFFFBBDD0D00
(1706595994.601679) can0 0AB#0000000000180040
(1706595994.601680) can0 0AA#0700090000008002
(1706595994.601681) can0 0A8#2200AE520800FEFF
(1706595994.601681) can0 0A7#0400000001000100
(1706595994.601681) can0 0A6#0400040005000000
(1706595994.602875) can0 0A5#5E062C00480028FF
(1706595994.602875) can0 0A4#0000000000000000
(1706595994.602876) can0 0A3#EBB5C71EECB5D71E
(1706595994.634605) can0 6B2#0000B809B8093461
(1706595994.661438) can0 068#6800000101000000
(1706595994.661438) can0 0AB#0000000000180040
(1706595994.661439) can0 0C0#0000000001000000
(1706595994.661439) can0 0C7#00914AD8C0C3018D
(1706595994.661620) can0 0C4#220022002D058F00
(1706595994.661620) can0 0C6#0000000000000000
(1706595994.682691) can0 6B2#0000B809B8093461
(1706595994.695997) can0 1839F380#00131514470001C5
(1706595994.695998) can0 068#6800000101000000
(1706595994.695998) can0 0C7#00914AD8C0C3018D
(1706595994.695998) can0 0C0#0000000001000000
(1706595994.697851) can0 0C4#220022002D058F00
(1706595994.697852) can0 0C6#0000000000000000
(1706595994.697852) can0 6B1#00000000151314F5
(1706595994.730677) can0 6B2#0000B809B8093461
(1706595994.746575) can0 068#6800000101000000
(1706595994.746576) can0 0A6#0200050008000000
(1706595994.746576) can0 0C0#0000000001000000
(1706595994.746576) can0 0C7#01914AD8C1C2018D
(1706595994.748008) can0 0C4#220022002D059700
(1706595994.748008) can0 0C6#0000000000000000
(1706595994.778687) can0 6B2#0000B809B8093461
(1706595994.796195) can0 1839F380#00131514470001C5
(1706595994.796195) can0 068#6800000101000000
(1706595994.796196) can0 0C0#0000000001000000
(1706595994.796975) can0 0C7#01914AD8C1C2018D
(1706595994.796976) can0 0C4#220022002D058F00
(1706595994.796976) can0 0C6#0000000000000000
(1706595994.802666) can0 6B1#00000000151314F5
(1706595994.827330) can0 6B2#0000B809B8093461
(1706595994.827331) can0 0AB#0000000000180040
(1706595994.827331) can0 0AA#0700090000008002
(1706595994.827331) can0 0A8#2200AE52F0FF0600
(1706595994.827332) can0 0A7#0600000007000F00
(1706595994.828127) can0 0A6#F3FFFBFFF6FF0000
(1706595994.828127) can0 0A5#2706170026004BFF
(1706595994.828128) can0 0A4#0000000000000000
(1706595994.828128) can0 0A3#ECB5C71EECB5E71E
(1706595994.835260) can0 0AD#9400000000000000
(1706595994.835261) can0 0AC#0000FFFF09DE0D00
(1706595994.835262) can0 0AB#0000000000180040
(1706595994.835263) can0 0AA#0700090000008002
(1706595994.835264) can0 0A8#2200AE520000FEFF
(1706595994.836525) can0 0A7#0500000007000300
(1706595994.836525) can0 0A6#0200FFFF01000000
(1706595994.836526) can0 0A5#FF063000500047FF
(1706595994.836526) can0 0A4#0000000000000000
(1706595994.836526) can0 0A3#ECB1C71EECB5E71E
(1706595994.862131) can0 0AD#1F00000000000000
(1706595994.862131) can0 0AC#0000FFFF0CDE0D00
(1706595994.862132) can0 0AB#0000000000180040
(1706595994.862133) can0 0AA#0700090000008002
(1706595994.862133) can0 0A8#2200AE52F9FFFDFF
(1706595994.862351) can0 0A7#060000000300FCFF
(1706595994.862351) can0 0A6#0000FAFF00000000
(1706595994.862352) can0 0A5#0C06E8FFD8FF48FF
(1706595994.862352) can0 0A4#0000000000000000
(1706595994.862352) can0 068#6800000101000000
(1706595994.863480) can0 0A3#EBB1B71EECB5D71E
(1706595994.863480) can0 0C0#0000000001000000
(1706595994.863480) can0 0C7#01914AD9C3BF018D
(1706595994.864080) can0 0C4#220022002D058F00
(1706595994.864081) can0 0C6#0000000000000000
(1706595994.864081) can0 202#0000000000000000
(1706595994.864328) can0 0AD#AC00000000000000
(1706595994.864328) can0 0AC#0000010012DE0D00
(1706595994.864328) can0 0AB#0000000000180040
(1706595994.864329) can0 0AA#0700090000008002
(1706595994.864329) can0 0A8#2200AE520400F8FF
(1706595994.864827) can0 0A7#060000000000FEFF
(1706595994.864828) can0 0A6#0500020005000000
(1706595994.864828) can0 0A5#C7071C002E0044FF
(1706595994.864828) can0 0A4#0000000000000000
(1706595994.864829) can0 0A3#ECB5C71EECB5E71E
(1706595994.874636) can0 6B2#0000B809B8093461
(1706595994.895787) can0 0C3#1000093C000000
(1706595994.895787) can0 0C8#FD6BD30000000000
(1706595994.895788) can0 0D4#0000000600000000
(1706595994.895788) can0 068#6800000101000000
(1706595994.895788) can0 0C7#01914AD9C3BF018D
(1706595994.896969) can0 0C0#0000000001000000
(1706595994.896969) can0 1839F380#00131514470001C5
(1706595994.896969) can0 0C4#220022002D058F00
(1706595994.898072) can0 0C6#0000000000000000
(1706595994.921805) can0 6B1#00000000151314F5
(1706595994.921806) can0 0AD#9300000000000000
(1706595994.921806) can0 0AC#0000FFFF21DE0D00
(1706595994.921806) can0 0AB#0000000000180040
(1706595994.921988) can0 0AA#0700090000008002
(1706595994.921989) can0 0A8#2200AE520800FEFF
(1706595994.921989) can0 0A7#0200000001000600
(1706595994.921990) can0 0A6#02000500FFFF0000
(1706595994.921991) can0 0A5#D00619002A0051FF
(1706595994.922981) can0 0A4#0000000000000000
(1706595994.922981) can0 0A3#EBB5C71EECB5D71E
(1706595994.923692) can0 0AD#B800000000000000
(1706595994.923693) can0 0AC#0000000024DE0D00
(1706595994.923693) can0 0AB#0000000000180040
(1706595994.923693) can0 0AA#0700090000008002
(1706595994.923693) can0 0A8#2200AE5200000000
(1706595994.924482) can0 0A7#060000000A000300
(1706595994.924483) can0 0A6#0000000000000000
(1706595994.924483) can0 0A5#04083400550047FF
(1706595994.924483) can0 0A4#0000000000000000
(1706595994.924484) can0 0A3#EBB1C71EECB5D71E
(1706595994.924591) can0 6B2#0000B809B8093461
(1706595994.946780) can0 068#6800000101000000
(1706595994.946781) can0 0C7#01914ADAC1C2018D
(1706595994.946781) can0 0C0#0000000001000000
(1706595994.948156) can0 0C4#220022002D059600
(1706595994.948157) can0 0C6#0000000000000000
(1706595994.970567) can0 6B2#0000B809B8093461
(1706595994.970568) can0 0AC#0000FEFF36DE0D00
(1706595994.970568) can0 0AB#0000000000180040
(1706595994.970568) can0 0AA#0700090000008002
(1706595994.970569) can0 0A9#9700FA00F901DA04
(1706595994.971726) can0 0A8#2200AE520900FCFF
(1706595994.971727) can0 0A7#0500000001000300
(1706595994.971727) can0 0A6#050005000A000000
(1706595994.971728) can0 0A5#BB063C00640064FF
(1706595994.971728) can0 0A4#0000000000000000
(1706595994.972824) can0 0A3#ECB1C71EECB5E71E
(1706595994.972825) can0 0A2#F0D8F0D865050000
(1706595994.972825) can0 0A1#BE00FB07F007F0D8
(1706595994.972825) can0 0A0#AD00AF00AF00BD00
(1706595994.996086) can0 1839F380#00131514470001C5
(1706595994.996087) can0 068#6800000101000000
(1706595994.996087) can0 0C7#01914ADAC1C2018D
(1706595994.996088) can0 0C0#0000000001000000
(1706595994.998034) can0 0C4#220022002D058F00
(1706595994.998035) can0 0C6#0000000000000000
(1706595995.027327) can0 0AD#A900000000000000
(1706595995.027328) can0 0AC#0000000042DE0D00
(1706595995.027328) can0 0AB#0000000000180040
(1706595995.027328) can0 0AA#0700090000008002
(1706595995.027328) can0 0A8#2200AE52F8FF0000
(1706595995.027528) can0 0A7#0400000000000300
(1706595995.027528) can0 0A6#FCFFFCFFF9FF0000
(1706595995.027529) can0 0A5#D405C7FFA1FF66FF
(1706595995.027529) can0 0A4#0000000000000000
(1706595995.027529) can0 0A3#EBB1C71EECB5E71E
(1706595995.028977) can0 6B1#00000000151314F5
(1706595995.029223) can0 6B2#0000B809B8093461
(1706595995.030198) can0 0AD#9400000000000000
(1706595995.030198) can0 0AC#0000050048DE0D00
(1706595995.030198) can0 0AB#0000000000180040
(1706595995.030199) can0 0AA#0700090000008002
(1706595995.030199) can0 0A8#2200AE52F8FF0B00
(1706595995.030324) can0 0A7#0400000007000100
(1706595995.030324) can0 0A6#F6FFFCFFF6FF0000
(1706595995.030325) can0 0A5#7E0725003D005FFF
(1706595995.030325) can0 0A4#0000000000000000
(1706595995.030325) can0 0A3#EBB1C71EECB5D71E
(1706595995.033119) can0 0AD#B900000000000000
(1706595995.033120) can0 0AC#000001004BDE0D00
(1706595995.033120) can0 0AB#0000000000180040
(1706595995.033120) can0 0AA#0700090000008002
(1706595995.033121) can0 0A8#2200AE5201000300
(1706595995.034322) can0 0A7#0400000001000100
(1706595995.034322) can0 0A6#FCFF0000F8FF0000
(1706595995.034323) can0 0A5#77082D004A0066FF
(1706595995.034323) can0 0A4#0000000000000000
(1706595995.034323) can0 0A3#ECB1C71EECB5E71E
(1706595995.042102) can0 0AD#7C00000000000000
(1706595995.042102) can0 0AC#000001004EDE0D00
(1706595995.042103) can0 0AB#0000000000180040
(1706595995.042104) can0 0AA#0700090000008002
(1706595995.042104) can0 0A8#2200AE520100F8FF
(1706595995.045948) can0 0A7#05000000FBFF0000
(1706595995.045948) can0 0A6#0300030006000000
(1706595995.045948) can0 0A5#D0081F0034006AFF
(1706595995.045949) can0 0A4#0000000000000000
(1706595995.045949) can0 0A3#ECB5C71EECB5E71E
(1706595995.046640) can0 068#6800000101000000
(1706595995.046640) can0 0C0#0000000001000000
(1706595995.046640) can0 0C7#01914AD8BFC3018D
(1706595995.047935) can0 0C4#220022002D058E00
(1706595995.047936) can0 0C6#0000000000000000
(1706595995.066610) can0 6B2#0000B809B8093461
(1706595995.069387) can0 0AD#BC00000000000000
(1706595995.069388) can0 0AE#1000C01915051920
(1706595995.069388) can0 0AC#0000000057DE0D00
(1706595995.069388) can0 0AB#0000000000180040
(1706595995.069389) can0 0AA#0700090000008002
(1706595995.070606) can0 0A9#9700FA00FA01E004
(1706595995.070606) can0 0A8#2200AE5200000000
(1706595995.070607) can0 0A7#04000000FDFF0000
(1706595995.070607) can0 0A6#0000000003000000
(1706595995.070607) can0 0A5#A405CCFFA0FF7BFF
(1706595995.071598) can0 0A4#0000000000000000
(1706595995.071599) can0 0A3#EBB1C71EECB5D71E
(1706595995.071599) can0 0A2#F0D8F0D865050000
(1706595995.071599) can0 0A1#BE00FB07F007F0D8
(1706595995.071599) can0 0A0#AD00AF00AF00BD00
(1706595995.108627) can0 1839F380#00131514470001C5
(1706595995.108628) can0 0AD#AE00000000000000
(1706595995.108628) can0 068#6800000101000000
(1706595995.108628) can0 0AC#0000FAFF60DE0D00
(1706595995.108728) can0 0C0#0000000001000000
(1706595995.109249) can0 0C7#01914AD8BFC3018D
(1706595995.109249) can0 0C4#220022002D058F00
(1706595995.109251) can0 0C6#0000000000000000
(1706595995.114563) can0 6B1#00000000151314F5
(1706595995.114564) can0 6B2#0000B809B8093461
(1706595995.146480) can0 068#6800000101000000
(1706595995.146480) can0 0C7#00914ADAC3C3018D
(1706595995.146481) can0 0C0#0000000001000000
(1706595995.147969) can0 0C4#220022002D058F00
(1706595995.147970) can0 0C6#0000000000000000
(1706595995.162563) can0 6B2#0000B809B8093461
(1706595995.168219) can0 0AD#0A00000000000000
(1706595995.168220) can0 0AE#1000C01915051920
(1706595995.168220) can0 0AC#0000020078DE0D00
(1706595995.168220) can0 0AB#0000000000180040
(1706595995.168220) can0 0AA#0700090000008002
(1706595995.169385) can0 0A9#9600FA00FA01E204
(1706595995.169385) can0 0A8#2200AE52FCFF0400
(1706595995.169385) can0 0A7#0200000005000000
(1706595995.169385) can0 0A6#FCFFFFFF01000000
(1706595995.169386) can0 0A5#32071C002E0092FF
(1706595995.170655) can0 0A4#0000000000000000
(1706595995.170656) can0 0A3#EBB5B71EECB5D71E
(1706595995.170656) can0 0A2#F0D8F0D865050000
(1706595995.170656) can0 0A1#BE00FB07F007F0D8
(1706595995.170656) can0 0A0#AE00AF00AF00BB00
(1706595995.177575) can0 0AD#9400000000000000
(1706595995.177576) can0 0AC#000001007BDE0D00
(1706595995.177576) can0 0AB#0000000000180040
(1706595995.177576) can0 0AA#0700090000008002
(1706595995.177576) can0 0A8#2200AE52FFFF0200
(1706595995.178549) can0 0A7#020000000100FCFF
(1706595995.178549) can0 0A6#0400FEFFFFFF0000
(1706595995.178549) can0 0A5#4B082F004E0091FF
(1706595995.178550) can0 0A4#0000000000000000
(1706595995.178550) can0 0A3#ECB5C71EECB5D71E
(1706595995.195866) can0 1839F380#00131514470001C5
(1706595995.195867) can0 0AA#0700090000008002
(1706595995.195867) can0 0A8#2200AE520800F4FF
(1706595995.195867) can0 068#6800000101000000
(1706595995.195976) can0 0A7#0500000000000A00
(1706595995.197060) can0 0C0#0000000001000000
(1706595995.197061) can0 0C7#00914ADAC3C3018D
(1706595995.197061) can0 0C4#220022002D059400
(1706595995.198250) can0 0C6#0000000000000000
(1706595995.210697) can0 6B2#0000B809B8093461
(1706595995.213518) can0 0AD#A700000000000000
(1706595995.213519) can0 0AC#0000000087DE0D00
(1706595995.213519) can0 0AB#0000000000180040
(1706595995.213520) can0 0AA#0700090000008002
(1706595995.213520) can0 0A8#2200AE520500FFFF
(1706595995.214591) can0 0A7#0400000007000800
(1706595995.214592) can0 0A6#0400000001000000
(1706595995.214592) can0 0A5#B305C9FFA4FF8AFF
(1706595995.214593) can0 0A4#0000000000000000
(1706595995.214593) can0 0A3#ECB9C71EEDB9D71E
(1706595995.218436) can0 6B1#00000000151314F5
(1706595995.246368) can0 068#6800000101000000
(1706595995.246369) can0 0C7#01914AD9C2C3018D
(1706595995.246369) can0 0C0#0000000001000000
(1706595995.247744) can0 0C4#220022002D059000
(1706595995.247744) can0 0C6#0000000000000000
(1706595995.258556) can0 6B2#0000B809B8093461
(1706595995.258557) can0 0AB#0000000000180040
(1706595995.258558) can0 0AA#0700090000008002
(1706595995.258558) can0 0A8#2200AE52FCFFFEFF
(1706595995.258558) can0 0A7#050000000C000600
(1706595995.259682) can0 0A6#0100FBFF01000000
(1706595995.259682) can0 0A5#A306E9FFDAFF87FF
(1706595995.259683) can0 0A4#0000000000000000
(1706595995.259683) can0 0A3#ECB1C71EEDB9D71E
(1706595995.267249) can0 0AD#A700000000000000
(1706595995.267249) can0 0AE#1000C01915051920
(1706595995.267249) can0 0AC#0000FEFF99DE0D00
(1706595995.267250) can0 0AB#0000000000180040
(1706595995.267250) can0 0AA#0700090000008002
(1706595995.268318) can0 0A9#9600FA00F901E204
(1706595995.268319) can0 0A8#2200AE520000FCFF
(1706595995.268319) can0 0A7#060000000E000A00
(1706595995.268319) can0 0A6#0100FCFF02000000
(1706595995.268319) can0 0A5#1405E1FFCCFF80FF
(1706595995.269930) can0 0A4#0000000000000000
(1706595995.269930) can0 0A3#ECB5C71EECB5D71E
(1706595995.269931) can0 0A2#F0D8F0D865050000
(1706595995.269932) can0 0A1#BD00FB07F007F0D8
(1706595995.269932) can0 0A0#AD00AE00AE00BB00
(1706595995.280349) can0 02A#5E5E5E5E5E5E5E5E
(1706595995.299399) can0 0AD#2C00000000000000
(1706595995.299400) can0 0AC#000001009FDE0D00
(1706595995.299400) can0 06A#5E5E5E5E5E5E5E5E
(1706595995.299580) can0 04A#5E5E5E5E5E5E5E5E
(1706595995.300611) can0 0AD#9D00000000000000
(1706595995.300611) can0 0AC#00000100A2DE0D00
(1706595995.300611) can0 0AB#0000000000180040
(1706595995.300612) can0 0AA#0700090000008002
(1706595995.300612) can0 0A8#2200AE52F8FF0200
(1706595995.300875) can0 02B#5E5E5E5E5E5E5E5E
(1706595995.300875) can0 0A7#040000000700FCFF
(1706595995.300876) can0 1839F380#00131514470001C5
(1706595995.301876) can0 068#6800000101000000
(1706595995.301877) can0 0C7#01914AD9C2C3018D
(1706595995.301877) can0 0C0#0000000001000000
(1706595995.301877) can0 0C4#220022002D058F00
(1706595995.301877) can0 0C6#0000000000000000
(1706595995.301964) can0 06B#5E5E5E5E5E5E5E5E
(1706595995.305643) can0 03A#5E5E5E5E5E5E5E5E
(1706595995.306716) can0 6B2#0000B809B8093461
(1706595995.310338) can0 01A#5F5F5E5F5F5E5E5F
(1706595995.312181) can0 0AD#9A00000000000000
(1706595995.312181) can0 0AC#0000FCFFA8DE0D00
(1706595995.312182) can0 0AB#0000000000180040
(1706595995.312182) can0 0AA#0700090000008002
(1706595995.312182) can0 0A8#2200AE520000F8FF
(1706595995.313465) can0 0A7#0500000001000600
(1706595995.313465) can0 0A6#0700FEFF07000000
(1706595995.313465) can0 0A5#75073000500071FF
(1706595995.313465) can0 0A4#0000000000000000
(1706595995.313466) can0 0A3#ECB9C71EECB1E71E
(1706595995.315472) can0 05A#5E5E5F5E5F5E5E5F
(1706595995.335062) can0 01B#5E5F5E5F5F5F5E5F
(1706595995.335267) can0 6B1#00000000151314F5
(1706595995.335267) can0 0A6#FCFF0000F0FF0000
(1706595995.335268) can0 0A5#CB06F6FFEFFF6EFF
(1706595995.335268) can0 0A4#0000000000000000
(1706595995.335268) can0 0A3#ECB9C71EEDB5E71E
(1706595995.335905) can0 03B#5E5E5E5E5E5E5E5E
(1706595995.336773) can0 05B#5E5F5E5E5E5F5E5F
(1706595995.337707) can0 04B#5E5E5E5E5E5E5E5E
(1706595995.339241) can0 0AD#0700000000000000
(1706595995.339242) can0 0AC#00000000B1DE0D00
(1706595995.339242) can0 0AB#0000000000180040
(1706595995.339242) can0 0AA#0700090000008002
(1706595995.339243) can0 0A8#2200AE520200FFFF
(1706595995.340458) can0 0A7#0200000005000000
(1706595995.340459) can0 0A6#0100000000000000
(1706595995.340459) can0 0A5#5A06EAFFDCFF6BFF
(1706595995.340459) can0 0A4#0000000000000000
(1706595995.340459) can0 0A3#ECB1C71EECB5E71E
(1706595995.346604) can0 068#6800000101000000
(1706595995.346604) can0 0C0#0000000001000000
(1706595995.346604) can0 0C7#00914BD9C1C3018D
(1706595995.347838) can0 0C4#220022002D058E00
(1706595995.347838) can0 0C6#0000000000000000
(1706595995.347838) can0 202#0000000000000000
(1706595995.354923) can0 6B2#0000B809B8093461
(1706595995.396054) can0 1839F380#00131514470200C6
(1706595995.396055) can0 068#6800000101000000
(1706595995.396055) can0 0C7#00914BD9C1C3018D
(1706595995.396055) can0 0C0#0000000001000000
(1706595995.398202) can0 0C4#220022002D058F00
(1706595995.398202) can0 0C6#0000000000000000
(1706595995.402731) can0 6B2#0000B809B8093461
(1706595995.424473) can0 3FF#27B82A5C00000000
(1706595995.426599) can0 6B1#00000000151314F5
(1706595995.446552) can0 068#6800000101000000
(1706595995.446553) can0 0C7#01914AD8C3C2018D
(1706595995.446554) can0 0C0#0000000001000000
(1706595995.447827) can0 0C4#220022002D058F00
(1706595995.447828) can0 0C6#0000000000000000
(1706595995.450684) can0 6B2#0000B809B8093461
(1706595995.495885) can0 1839F380#00131514470200C6
(1706595995.495885) can0 068#6800000101000000
(1706595995.495886) can0 0C7#01914AD8C3C2018D
(1706595995.495886) can0 0C0#0000000001000000
(1706595995.497760) can0 0C4#220022002D058E00
(1706595995.497760) can0 0C6#0000000000000000
(1706595995.497760) can0 6B2#0000B809B8093461
(1706595995.497761) can0 6B3#B300000000000000
(1706595995.530450) can0 6B1#00000000151314F5
(1706595995.546571) can0 068#6800000101000000
(1706595995.546571) can0 0AB#0000000000180040
(1706595995.546572) can0 0C0#0000000001000000
(1706595995.546572) can0 0C7#01914ADBC2C1018D
(1706595995.546572) can0 6B2#0000B809B8093461
(1706595995.547817) can0 0C4#220022002D059100
(1706595995.547818) can0 0C6#0000000000000000
(1706595995.555275) can0 0AD#9800000000000000
(1706595995.555276) can0 0AC#00000400F9DE0D00
(1706595995.555276) can0 0AB#0000000000180040
(1706595995.555276) can0 0AA#0700090000008002
(1706595995.555277) can0 0A8#2200AE52F5FF0800
(1706595995.556433) can0 0A7#040000000700FCFF
(1706595995.556434) can0 0A6#F6FFFCFFF6FF0000
(1706595995.556434) can0 0A5#D80634005D0049FF
(1706595995.556434) can0 0A4#0000000000000000
(1706595995.556434) can0 0A3#ECB5C71EEBB1E71E
(1706595995.594657) can0 6B2#0000B809B8093461
(1706595995.595866) can0 1839F380#00131514470200C6
(1706595995.595867) can0 068#6800000101000000
(1706595995.595867) can0 0C0#0000000001000000
(1706595995.597419) can0 0C7#01914ADBC2C1018D
(1706595995.597420) can0 0C4#220022002D059000
(1706595995.597420) can0 0C6#0000000000000000
(1706595995.618297) can0 0AD#5100000000000000
(1706595995.618297) can0 0AC#000000000EDF0D00
(1706595995.618298) can0 0AB#0000000000180040
(1706595995.618298) can0 0AA#0700090000008002
(1706595995.618298) can0 0A8#2200AE52FAFF0000
(1706595995.619598) can0 0A7#0100000000000000
(1706595995.619598) can0 0A6#FEFFFCFFFCFF0000
(1706595995.619598) can0 0A5#77060000000046FF
(1706595995.619599) can0 0A4#0000000000000000
(1706595995.619599) can0 0A3#ECB5C71EECB5E71E
(1706595995.634685) can0 6B1#00000000151314F5
(1706595995.636269) can0 0AD#9100000000000000
(1706595995.636270) can0 0AC#0000000014DF0D00
(1706595995.636270) can0 0AB#0000000000180040
(1706595995.636270) can0 0AA#0700090000008002
(1706595995.636271) can0 0A8#2200AE52FDFF0000
(1706595995.637480) can0 0A7#0400000005000000
(1706595995.637480) can0 0A6#FEFFFFFF01000000
(1706595995.637481) can0 0A5#C305DEFFC7FF3BFF
(1706595995.637481) can0 0A4#0000000000000000
(1706595995.637481) can0 0A3#EBB1B71EECB5D71E
(1706595995.642622) can0 6B2#0000B809B8093461
(1706595995.646481) can0 068#6800000101000000
(1706595995.646481) can0 0A6#0000030001000000
(1706595995.646481) can0 0C0#0000000001000000
(1706595995.646482) can0 0C7#01914ADAC2C2018D
(1706595995.647632) can0 0C4#220022002D058E00
(1706595995.647633) can0 0C6#0000000000000000
(1706595995.663250) can0 0AD#3D00000000000000
(1706595995.663251) can0 0AE#1000C01915051920
(1706595995.663251) can0 0AC#0000FEFF1DDF0D00
(1706595995.663251) can0 0AB#0000000000180040
(1706595995.663251) can0 0AA#0700090000008002
(1706595995.664425) can0 0A9#9600FA00FA01DF04
(1706595995.664426) can0 0A8#2200AE520600FCFF
(1706595995.664426) can0 0A7#060000000000F7FF
(1706595995.664426) can0 0A6#0300030004000000
(1706595995.664426) can0 0A5#0807130020003FFF
(1706595995.665659) can0 0A4#0000000000000000
(1706595995.665659) can0 0A3#ECB1D71EECB5E71E
(1706595995.665659) can0 0A2#F0D8F0D865050000
(1706595995.665659) can0 0A1#BE00FB07F007F0D8
(1706595995.665660) can0 0A0#AD00AF00AF00BD00
(1706595995.690544) can0 6B2#0000B809B8093461
(1706595995.696035) can0 1839F380#00131514470200C6
(1706595995.696035) can0 068#6800000101000000
(1706595995.696036) can0 0C7#01914ADAC2C2018D
(1706595995.696036) can0 0C0#0000000001000000
(1706595995.697867) can0 0C4#220022002D058F00
(1706595995.697868) can0 0C6#0000000000000000
(1706595995.738658) can0 6B1#00000000151314F5
(1706595995.738659) can0 6B2#0000B809B8093461
(1706595995.746689) can0 068#6800000101000000
(1706595995.746690) can0 0C0#0000000001000000
(1706595995.746690) can0 0C7#01914ADAC0C2018D
(1706595995.747907) can0 0C4#220022002D059800
(1706595995.747908) can0 0C6#0000000000000000
(1706595995.787104) can0 6B2#0000B809B8093461
(1706595995.789340) can0 0AD#0900000000000000
(1706595995.789341) can0 0AC#0000FCFF47DF0D00
(1706595995.789341) can0 0AB#0000000000180040
(1706595995.789342) can0 0AA#0700090000008002
(1706595995.789342) can0 0A8#2200AE521000F7FF
(1706595995.790513) can0 0A7#0400000000000600
(1706595995.790513) can0 0A6#07000A0008000000
(1706595995.790513) can0 0A5#4607F5FFEDFF4EFF
(1706595995.790514) can0 0A4#0000000000000000
(1706595995.790514) can0 0A3#EBB5B71EEBB1D71E
(1706595995.796171) can0 1839F380#00131514470200C6
(1706595995.796172) can0 068#6800000101000000
(1706595995.796172) can0 0C0#0000000001000000
(1706595995.797094) can0 0C7#01914ADAC0C2018D
(1706595995.797095) can0 0C4#220022002D058F00
(1706595995.797095) can0 0C6#0000000000000000
(1706595995.834826) can0 6B2#0000B809B8093461
(1706595995.834827) can0 0AB#0000000000180040
(1706595995.834827) can0 0AA#0700090000008002
(1706595995.834827) can0 0A8#2200AE52FCFF0200
(1706595995.834827) can0 0A7#0600000003000000
(1706595995.835722) can0 0A6#FCFFFFFF02000000
(1706595995.835722) can0 0A5#88061400200055FF
(1706595995.835723) can0 0A4#0000000000000000
(1706595995.835723) can0 0A3#EBB5C71EECB5E71E
(1706595995.842569) can0 6B1#00000000151314F5
(1706595995.846851) can0 068#6800000101000000
(1706595995.846852) can0 0C0#0000000001000000
(1706595995.846852) can0 0C7#01914AD9C3C1018D
(1706595995.847746) can0 0C4#220022002D059400
(1706595995.847746) can0 0C6#0000000000000000
(1706595995.847747) can0 202#0000000000000000
(1706595995.852199) can0 0AD#1500000000000000
(1706595995.852199) can0 0AC#0000FEFF5CDF0D00
(1706595995.852199) can0 0AB#0000000000180040
(1706595995.852200) can0 0AA#0700090000008002
(1706595995.852200) can0 0A8#2200AE520800FCFF
(1706595995.854226) can0 0A7#04000000FDFF0100
(1706595995.854227) can0 0A6#0400040002000000
(1706595995.854227) can0 0A5#E2060F00180058FF
(1706595995.854227) can0 0A4#0000000000000000
(1706595995.854227) can0 0A3#EBB9C71EECB5E71E
(1706595995.861161) can0 0AD#1F00000000000000
(1706595995.861162) can0 0AE#1000C01915051920
(1706595995.861162) can0 0AC#0000FEFF5FDF0D00
(1706595995.861162) can0 0AB#0000000000180040
(1706595995.861162) can0 0AA#0700090000008002
(1706595995.862363) can0 0A9#9600FA00FA01DF04
(1706595995.862364) can0 0A8#2200AE520500FBFF
(1706595995.862364) can0 0A7#06000000FBFF0800
(1706595995.862364) can0 0A6#04000100FDFF0000
(1706595995.862364) can0 0A5#D8060300050055FF
(1706595995.863583) can0 0A4#0000000000000000
(1706595995.863583) can0 0A3#EBB9C71EECB5E71E
(1706595995.863583) can0 0A2#F0D8F0D865050000
(1706595995.863583) can0 0A1#BE00FB07F007F0D8
(1706595995.863584) can0 0A0#AD00AF00AE00BD00
(1706595995.870500) can0 0AD#4300000000000000
(1706595995.870501) can0 0AC#0000000062DF0D00
(1706595995.870501) can0 0AB#0000000000180040
(1706595995.870501) can0 0AA#0700090000008002
(1706595995.870502) can0 0A8#2200AE52FCFF0000
(1706595995.871738) can0 0A7#060000000000FEFF
(1706595995.871739) can0 0A6#0A00050008000000
(1706595995.871739) can0 0A5#3A07000000005CFF
(1706595995.871739) can0 0A4#0000000000000000
(1706595995.871739) can0 0A3#ECB5C71EECB5E71E
(1706595995.882575) can0 6B2#0000B809B8093461
(1706595995.888408) can0 0AD#7F00000000000000
(1706595995.888409) can0 0AC#0000FBFF68DF0D00
(1706595995.888409) can0 0AB#0000000000180040
(1706595995.888409) can0 0AA#0700090000008002
(1706595995.888409) can0 0A8#2200AE520B00F5FF
(1706595995.889821) can0 0A7#05000000FBFF0A00
(1706595995.889821) can0 0A6#0800080005000000
(1706595995.889822) can0 0A5#920708000D0060FF
(1706595995.889822) can0 0A4#0000000000000000
(1706595995.889822) can0 0A3#EBB5C71EECB5E71E
(1706595995.896207) can0 0C3#1000093C000000
(1706595995.896207) can0 0C8#FD6BD30000000000
(1706595995.896208) can0 0D4#0000000500000000
(1706595995.896208) can0 068#6800000101000000
(1706595995.896208) can0 0C7#01914AD9C3C1018D
(1706595995.897081) can0 0C0#0000000001000000
(1706595995.897081) can0 1839F380#00131514470200C6
(1706595995.897082) can0 0C4#220022002D059000
(1706595995.897082) can0 0C6#0000000000000000
(1706595995.930638) can0 6B2#0000B809B8093461
(1706595995.946735) can0 068#6800000101000000
(1706595995.946735) can0 0C0#0000000001000000
(1706595995.946736) can0 0C7#01914ADAC3C1018D
(1706595995.946736) can0 6B1#00000000151314F5
(1706595995.950932) can0 0C4#220022002D058E00
(1706595995.950932) can0 0C6#0000000000000000
(1706595995.978654) can0 6B2#0000B809B8093461
(1706595995.978654) can0 0AB#0000000000180040
(1706595995.978655) can0 0AA#0700090000008002
(1706595995.978655) can0 0A8#2200AE520C00F9FF
(1706595995.978655) can0 0A7#0400000003000800
(1706595995.979632) can0 0A6#0800050005000000
(1706595995.979632) can0 0A5#B8061F00320066FF
(1706595995.979632) can0 0A4#0000000000000000
(1706595995.979633) can0 0A3#EBB5D71EECB5E71E
(1706595996.003919) can0 0AD#A100000000000000
(1706595996.003920) can0 0AC#0000FEFF89DF0D00
(1706595996.003921) can0 0AB#0000000000180040
(1706595996.003921) can0 0AA#0700090000008002
(1706595996.003921) can0 0A8#2200AE520F00FBFF
(1706595996.004149) can0 0A7#05000000FBFF0A00
(1706595996.004150) can0 0A6#05000A0005000000
(1706595996.004150) can0 0A5#1E071400210068FF
(1706595996.004150) can0 0A4#0000000000000000
(1706595996.004150) can0 0A3#EBB9D71EEDB9E71E
(1706595996.005175) can0 1839F380#00131514470200C6
(1706595996.005175) can0 068#6800000101000000
(1706595996.005176) can0 0C0#0000000001000000
(1706595996.005176) can0 0C7#01914ADAC3C1018D
(1706595996.005988) can0 0AA#0700090000008002
(1706595996.005988) can0 0A8#2200AE520200FCFF
(1706595996.005988) can0 0A7#050000000500FAFF
(1706595996.005988) can0 0A6#0100020008000000
(1706595996.005989) can0 0A5#280819002A0072FF
(1706595996.006415) can0 0A4#0000000000000000
(1706595996.006415) can0 0A3#EBB9C71EEDB9D71E
(1706595996.006416) can0 0C4#220022002D059300
(1706595996.006416) can0 0C6#0000000000000000
(1706595996.041527) can0 02A#5E5E5E5E5F5E5E5F
(1706595996.041738) can0 0AD#5600000000000000
(1706595996.041738) can0 0AC#0000FFFF95DF0D00
(1706595996.041738) can0 0AB#0000000000180040
(1706595996.041739) can0 0AA#0700090000008002
(1706595996.041740) can0 0A8#2200AE520C00FDFF
(1706595996.042795) can0 0A7#0600000000000600
(1706595996.042796) can0 0A6#0700050002000000
(1706595996.042796) can0 0A5#2E06DAFFC0FF73FF
(1706595996.042797) can0 0A4#0000000000000000
(1706595996.042797) can0 0A3#EBB5C71EEDB9E71E
(1706595996.042988) can0 03A#5F5E5F5E5E5F5E5F
(1706595996.043588) can0 6B2#0000B809B8093461
(1706595996.043588) can0 02B#5E5E5E5E5E5E5E5E
(1706595996.043588) can0 06B#5E5F5E5F5E5E5E5F
(1706595996.043589) can0 06A#5E5E5E5E5E5E5E5E
(1706595996.045643) can0 05B#5F5F5E5E5E5E5E5F
(1706595996.045644) can0 068#6800000101000000
(1706595996.046540) can0 0C7#01914ADCC0C1018D
(1706595996.046540) can0 0C0#0000000001000000
(1706595996.047760) can0 0C4#220022002D058F00
(1706595996.047761) can0 0C6#0000000000000000
(1706595996.050347) can0 04A#5E5E5E5E5E5E5E5E
(1706595996.050347) can0 6B1#00000000151314F5
(1706595996.055446) can0 05A#5E5E5E5E5F5E5E5F
(1706595996.060573) can0 01B#5E5F5E5E5F5F5E5F
(1706595996.060573) can0 0A8#2200AE52FBFFFFFF
(1706595996.060573) can0 0A7#0100000003000000
(1706595996.060573) can0 0A6#FFFF0000FCFF0000
(1706595996.060573) can0 0A5#FB0507000B0049FF
(1706595996.061826) can0 0A4#0000000000000000
(1706595996.061826) can0 0A3#EBB5B71EECB5D71E
(1706595996.061826) can0 0A2#F0D8F0D865050000
(1706595996.061826) can0 0A1#BD00FB07F007F0D8
(1706595996.061826) can0 0A0#AD00AE00AE00BC00
(1706595996.065619) can0 04B#5E5E5F5E5E5E5E5F
(1706595996.070781) can0 03B#5E5E5E5E5E5E5E5E
(1706595996.074823) can0 6B2#0000B809B8093461
(1706595996.074823) can0 01A#5E5F5E5F5F5E5E5F
(1706595996.096266) can0 1839F380#00131514470001C5
(1706595996.096267) can0 0A8#2200AE5208000000
(1706595996.096267) can0 068#6800000101000000
(1706595996.096267) can0 0A7#02000000FDFFFAFF
(1706595996.096357) can0 0C0#0000000001000000
(1706595996.097386) can0 0C7#01914ADCC0C1018D
(1706595996.097386) can0 0C4#220022002D058F00
(1706595996.097386) can0 0C6#0000000000000000
(1706595996.122404) can0 0AD#0500000000000000
(1706595996.122405) can0 0AC#00000200B6DF0D00
(1706595996.122405) can0 6B2#0000B809B8093461
(1706595996.146559) can0 068#6800000101000000
(1706595996.146560) can0 0C7#00914ADAC1C1018D
(1706595996.146560) can0 0C0#0000000001000000
(1706595996.147720) can0 0C4#220022002D059000
(1706595996.147721) can0 0C6#0000000000000000
(1706595996.154885) can0 6B1#00000000151314F5
(1706595996.158177) can0 0AD#5300000000000000
(1706595996.158178) can0 0AE#1000C01915051920
(1706595996.158178) can0 0AC#00000000C2DF0D00
(1706595996.158178) can0 0AB#0000000000180040
(1706595996.158179) can0 0AA#0700090000008002
(1706595996.159367) can0 0A9#9600FB00F901DF04
(1706595996.159367) can0 0A8#2200AE520000FEFF
(1706595996.159367) can0 0A7#0400000003000100
(1706595996.159367) can0 0A6#0000FEFF03000000
(1706595996.159368) can0 0A5#440509000F005EFF
(1706595996.160676) can0 0A4#0000000000000000
(1706595996.160676) can0 0A3#EBB5D71EECB5E71E
(1706595996.160676) can0 0A2#F0D8F0D865050000
(1706595996.160676) can0 0A1#BD00FB07F007F0D8
(1706595996.160677) can0 0A0#AD00AF00AE00BC00
(1706595996.170706) can0 6B2#0000B809B8093461
(1706595996.176229) can0 0AD#A700000000000000
(1706595996.176230) can0 0AC#00000000C8DF0D00
(1706595996.176230) can0 0AB#0000000000180040
(1706595996.176230) can0 0AA#0700090000008002
(1706595996.176231) can0 0A8#2200AE52FBFFFEFF
(1706595996.177470) can0 0A7#050000000300FEFF
(1706595996.177470) can0 0A6#0000FBFFFBFF0000
(1706595996.177471) can0 0A5#A506180028005BFF
(1706595996.177471) can0 0A4#0000000000000000
(1706595996.177471) can0 0A3#EBB5C71EECB5D71E
(1706595996.196571) can0 1839F380#00131514470001C5
(1706595996.196571) can0 0A4#0000000000000000
(1706595996.196572) can0 068#6800000101000000
(1706595996.196572) can0 0A3#EBB1C71EECB5E71E
(1706595996.196668) can0 0C0#0000000001000000
(1706595996.197255) can0 0C7#00914ADAC1C1018D
(1706595996.197256) can0 0C4#220022002D058F00
(1706595996.197256) can0 0C6#0000000000000000
(1706595996.235877) can0 6B2#0000B809B8093461
(1706595996.236085) can0 0AD#1400000000000000
(1706595996.236085) can0 0AC#00000000D7DF0D00
(1706595996.236085) can0 0AB#0000000000180040
(1706595996.236086) can0 0AA#0700090000008002
(1706595996.236086) can0 0A8#2200AE52FCFF0000
(1706595996.237766) can0 0A7#0400000005000800
(1706595996.237767) can0 0A6#FEFFFEFF03000000
(1706595996.237768) can0 0A5#E005010002004AFF
(1706595996.237768) can0 0A4#0000000000000000
(1706595996.237768) can0 0A3#EBB1C71EECB5E71E
(1706595996.238022) can0 0AD#6600000000000000
(1706595996.238023) can0 0AC#0000FFFFDADF0D00
(1706595996.238024) can0 0AB#0000000000180040
(1706595996.238024) can0 0AA#0700090000008002
(1706595996.238025) can0 0A8#2200AE520C00FDFF
(1706595996.238640) can0 0A7#0600000001000600
(1706595996.238640) can0 0A6#0600060006000000
(1706595996.238640) can0 0A5#750611001C004AFF
(1706595996.238640) can0 0A4#0000000000000000
(1706595996.238641) can0 0A3#EBB1C71EEBB1E71E
(1706595996.239354) can0 0AD#8C00000000000000
(1706595996.239354) can0 0AC#00000000DDDF0D00
(1706595996.239354) can0 0AB#0000000000180040
(1706595996.239354) can0 0AA#0700090000008002
(1706595996.239355) can0 0A8#2200AE520A000000
(1706595996.240603) can0 0A7#0600000003000000
(1706595996.240603) can0 0A6#0000090003000000
(1706595996.240604) can0 0A5#F90612001D0044FF
(1706595996.240604) can0 0A4#0000000000000000
(1706595996.240604) can0 0A3#EBB5C71EEBB1E71E
(1706595996.246697) can0 068#6800000101000000
(1706595996.246697) can0 0C0#0000000001000000
(1706595996.246697) can0 0C7#01914AD8C1C3018D
(1706595996.247796) can0 0C4#220022002D058E00
(1706595996.247797) can0 0C6#0000000000000000
(1706595996.258574) can0 6B1#00000000151314F5
(1706595996.258574) can0 0A8#2200AE520F00FEFF
(1706595996.258575) can0 0A7#0400000003000100
(1706595996.258576) can0 0A6#0800060003000000
(1706595996.258576) can0 0A5#F9050000000040FF
(1706595996.259682) can0 0A4#0000000000000000
(1706595996.259682) can0 0A3#ECB9C71EECB5D71E
(1706595996.259683) can0 0A2#F0D8F0D865050000
(1706595996.259683) can0 0A1#BE00FB07F007F0D8
(1706595996.259683) can0 0A0#AD00AF00AE00BD00
(1706595996.266645) can0 6B2#0000B809B8093461
(1706595996.266645) can0 0AB#0000000000180040
(1706595996.266646) can0 0AA#0700090000008002
(1706595996.266646) can0 0A8#2200AE52FCFF0000
(1706595996.266647) can0 0A7#0400000005000800
(1706595996.267667) can0 0A6#FEFFFEFFF8FF0000
(1706595996.267667) can0 0A5#61061400210045FF
(1706595996.267668) can0 0A4#0000000000000000
(1706595996.267668) can0 0A3#EBB9B71EECB5D71E
(1706595996.275245) can0 0AD#1E00000000000000
(1706595996.275245) can0 0AC#00000000E9DF0D00
(1706595996.275245) can0 0AB#0000000000180040
(1706595996.275246) can0 0AA#0700090000008002
(1706595996.275246) can0 0A8#2200AE5204000000
(1706595996.276397) can0 0A7#0600000003000600
(1706595996.276398) can0 0A6#0000030000000000
(1706595996.276398) can0 0A5#3406F0FFE5FF3CFF
(1706595996.276398) can0 0A4#0000000000000000
(1706595996.276398) can0 0A3#EBB5B71EECB5D71E
(1706595996.284212) can0 0AD#9F00000000000000
(1706595996.284213) can0 0AC#00000100ECDF0D00
(1706595996.284213) can0 0AB#0000000000180040
(1706595996.284213) can0 0AA#0700090000008002
(1706595996.284213) can0 0A8#2200AE5202000200
(1706595996.286227) can0 0A7#0600000003000D00
(1706595996.286228) can0 0A6#0000030006000000
(1706595996.286228) can0 0A5#1D05CDFFABFF44FF
(1706595996.286228) can0 0A4#0000000000000000
(1706595996.286228) can0 0A3#EBB5C71EECB5E71E
(1706595996.293388) can0 0AD#9000000000000000
(1706595996.293389) can0 0AC#0000FFFFEFDF0D00
(1706595996.293389) can0 0AB#0000000000180040
(1706595996.293389) can0 0AA#0700090000008002
(1706595996.293389) can0 0A8#2200AE52FAFFFDFF
(1706595996.294367) can0 0A7#0500000007000300
(1706595996.294368) can0 0A6#FEFFFBFFFBFF0000
(1706595996.294368) can0 0A5#4805FBFFF8FF41FF
(1706595996.294368) can0 0A4#0000000000000000
(1706595996.294368) can0 0A3#EBB5C71EEBB1E71E
(1706595996.296469) can0 1839F380#00131514470001C5
(1706595996.296470) can0 068#6800000101000000
(1706595996.296470) can0 0C7#01914AD8C1C3018D
(1706595996.296470) can0 0C0#0000000001000000
(1706595996.297947) can0 0C4#220022002D058F00
(1706595996.297947) can0 0C6#0000000000000000
(1706595996.311223) can0 0AD#7200000000000000
(1706595996.311224) can0 0AC#0000FFFFF5DF0D00
(1706595996.311224) can0 0AB#0000000000180040
(1706595996.311224) can0 0AA#0700090000008002
(1706595996.311224) can0 0A8#2200AE520A00FDFF
(1706595996.312617) can0 0A7#0500000005000000
(1706595996.312617) can0 0A6#0600030009000000
(1706595996.312617) can0 0A5#0D0607000B0038FF
(1706595996.312618) can0 0A4#0000000000000000
(1706595996.312618) can0 0A3#ECB1D71EECB5E71E
(1706595996.315041) can0 6B2#0000B809B8093461
(1706595996.363617) can0 068#6800000101000000
(1706595996.363618) can0 0C7#00914ADBC0C3018D
(1706595996.363618) can0 0C0#0000000001000000
(1706595996.363799) can0 0C4#220022002D059000
(1706595996.363800) can0 0C6#0000000000000000
(1706595996.363800) can0 202#0000000000000000
(1706595996.364347) can0 6B1#00000000151314F5
(1706595996.364347) can0 6B2#0000B809B8093461
(1706595996.365340) can0 0AD#B200000000000000
(1706595996.365341) can0 0AC#0000FFFF07E00D00
(1706595996.365341) can0 0AB#0000000000180040
(1706595996.365341) can0 0AA#0700090000008002
(1706595996.365341) can0 0A8#2200AE52FEFFFCFF
(1706595996.366500) can0 0A7#050000000500F7FF
(1706595996.366503) can0 0A6#0000FBFFF9FF0000
(1706595996.366503) can0 0A5#8F05DEFFC6FF2DFF
(1706595996.366504) can0 0A4#0000000000000000
(1706595996.366504) can0 0A3#ECB5D71EECB5E71E
(1706595996.395954) can0 1839F380#00131514470001C5
(1706595996.395955) can0 068#6800000101000000
(1706595996.395955) can0 0C0#0000000001000000
(1706595996.397058) can0 0C7#00914ADBC0C3018D
(1706595996.397058) can0 0C4#220022002D058F00
(1706595996.397058) can0 0C6#0000000000000000
(1706595996.410696) can0 0AB#0000000000180040
(1706595996.410696) can0 6B2#0000B809B8093461
(1706595996.424671) can0 3FF#28B82A5C00000000
(1706595996.446774) can0 068#6800000101000000
(1706595996.446775) can0 0C7#01914AD9C0BF018D
(1706595996.446776) can0 0AA#0700090000008002
(1706595996.446776) can0 0A8#2200AE520200FEFF
(1706595996.446777) can0 0A7#0200000003000300
(1706595996.447769) can0 0A6#0300FEFFFFFF0000
(1706595996.447769) can0 0A5#6505000000003FFF
(1706595996.447770) can0 0A4#0000000000000000
(1706595996.447770) can0 0A3#ECB5C71EEBB5E71E
(1706595996.447770) can0 0C0#0000000001000000
(1706595996.449102) can0 0C4#220022002D058E00
(1706595996.449103) can0 0C6#0000000000000000
(1706595996.455243) can0 0AD#5300000000000000
(1706595996.455244) can0 0AE#1000C01915051920
(1706595996.455244) can0 0AC#0000000025E00D00
(1706595996.455244) can0 0AB#0000000000180040
(1706595996.455244) can0 0AA#0700090000008002
(1706595996.456564) can0 0A9#9600FA00F901E104
(1706595996.456565) can0 0A8#2200AE5200000100
(1706595996.456565) can0 0A7#0400000007000300
(1706595996.456565) can0 0A6#FFFF010001000000
(1706595996.456565) can0 0A5#6F062F004D003DFF
(1706595996.457914) can0 0A4#0000000000000000
(1706595996.457914) can0 0A3#ECB5C71EECB5D71E
(1706595996.457914) can0 0A2#F0D8F0D865050000
(1706595996.457914) can0 0A1#BD00FB07F007F0D8
(1706595996.457915) can0 0A0#AD00AF00AE00BD00
(1706595996.458729) can0 6B2#0000B809B8093461
(1706595996.464229) can0 0AD#AF00000000000000
(1706595996.464229) can0 0AC#0000FDFF28E00D00
(1706595996.464229) can0 0AB#0000000000180040
(1706595996.464230) can0 0AA#0700090000008002
(1706595996.464230) can0 0A8#2200AE520500FAFF
(1706595996.465362) can0 0A7#0400000000000300
(1706595996.465362) can0 0A6#0300030001000000
(1706595996.465362) can0 0A5#DB073B00610040FF
(1706595996.465363) can0 0A4#0000000000000000
(1706595996.465363) can0 0A3#EBB5C71EECB5D71E
(1706595996.466560) can0 6B1#00000000151314F5
(1706595996.496180) can0 1839F380#00131514470001C5
(1706595996.496181) can0 068#6800000101000000
(1706595996.496181) can0 0C7#01914AD9C0BF018D
(1706595996.496181) can0 0C0#0000000001000000
(1706595996.517849) can0 0C4#220022002D058F00
(1706595996.517849) can0 0C6#0000000000000000
(1706595996.518077) can0 6B2#0000B809B8093461
(1706595996.518077) can0 6B3#B300000000000000
(1706595996.546827) can0 068#6800000101000000
(1706595996.546827) can0 0A6#0D000D000D000000
(1706595996.546827) can0 0C0#0000000001000000
(1706595996.546828) can0 0C7#00914ADCC1C2018D
(1706595996.548016) can0 0C4#220022002D059300
(1706595996.548016) can0 0C6#0000000000000000
(1706595996.554867) can0 6B2#0000B809B8093461
(1706595996.570623) can0 6B1#00000000151314F5
(1706595996.612611) can0 1839F380#00131514470001C5
(1706595996.612612) can0 068#6800000101000000
(1706595996.612612) can0 0C7#00914ADCC1C2018D
(1706595996.612612) can0 0C0#0000000001000000
(1706595996.612863) can0 0C4#220022002D059400
(1706595996.612863) can0 0C6#0000000000000000
(1706595996.614134) can0 6B2#0000B809B8093461
(1706595996.614366) can0 0AD#1F00000000000000
(1706595996.614367) can0 0AC#0000FFFF58E00D00
(1706595996.614367) can0 0AB#0000000000180040
(1706595996.614368) can0 0AA#0700090000008002
(1706595996.614368) can0 0A8#2200AE520800FEFF
(1706595996.617826) can0 0A7#0500000003000800
(1706595996.617827) can0 0A6#F8FF040010000000
(1706595996.617827) can0 0A5#930609000E004EFF
(1706595996.617827) can0 0A4#0000000000000000
(1706595996.617828) can0 0A3#ECB1C71EECB5E71E
(1706595996.618411) can0 0AD#6300000000000000
(1706595996.618411) can0 0AC#000000005BE00D00
(1706595996.618412) can0 0AB#0000000000180040
(1706595996.618412) can0 0AA#0700090000008002
(1706595996.618412) can0 0A8#2200AE52F7FF0000
(1706595996.619018) can0 0A7#050000000700F7FF
(1706595996.619018) can0 0A6#FBFFFBFFF9FF0000
(1706595996.619019) can0 0A5#C805D7FFCAFF4DFF
(1706595996.619019) can0 0A4#0000000000000000
(1706595996.619019) can0 0A3#ECB1B71EEDB5D71E
(1706595996.646520) can0 068#6800000101000000
(1706595996.646521) can0 0C7#01914AD9C3C2018D
(1706595996.646521) can0 0C0#0000000001000000
(1706595996.647816) can0 0C4#220022002D058F00
(1706595996.647816) can0 0C6#0000000000000000
(1706595996.650883) can0 6B2#0000B809B8093461
(1706595996.674628) can0 6B1#00000000151314F5
(1706595996.680201) can0 0AD#7A00000000000000
(1706595996.680202) can0 0AC#0000000070E00D00
(1706595996.680202) can0 0AB#0000000000180040
(1706595996.680203) can0 0AA#0700090000008002
(1706595996.680203) can0 0A8#2200AE52FCFF0000
(1706595996.681374) can0 0A7#060000000A00FAFF
(1706595996.681375) can0 0A6#FEFFFEFFFEFF0000
(1706595996.681375) can0 0A5#76051700260049FF
(1706595996.681375) can0 0A4#0000000000000000
(1706595996.681375) can0 0A3#EBB1C71EECB5E71E
(1706595996.696123) can0 1839F380#00131514470001C5
(1706595996.696124) can0 068#6800000101000000
(1706595996.696124) can0 0C7#01914AD9C3C2018D
(1706595996.696125) can0 0C0#0000000001000000
(1706595996.697889) can0 0C4#220022002D05A500
(1706595996.697889) can0 0C6#0000000000000000
(1706595996.697890) can0 0AD#3A00000000000000
(1706595996.697890) can0 0AC#0000030076E00D00
(1706595996.697890) can0 6B2#0000B809B8093461
(1706595996.746685) can0 068#6800000101000000
(1706595996.746686) can0 0C0#0000000001000000
(1706595996.746686) can0 0C7#01914ADAC2C1018D
(1706595996.746687) can0 6B2#0000B809B8093461
(1706595996.748053) can0 0C4#220022002D058F00
(1706595996.748054) can0 0C6#0000000000000000
(1706595996.760742) can0 02A#5E5E5E5E5F5E5E5F
(1706595996.765898) can0 06A#5E5E5E5E5E5E5E5E
(1706595996.770990) can0 04A#5E5E5E5E5E5E5E5E
(1706595996.770990) can0 0AB#0000000000180040
(1706595996.770991) can0 0AA#0700090000008002
(1706595996.770991) can0 0A8#2200AE520D00FBFF
(1706595996.770992) can0 0A7#0600000000000000
(1706595996.775797) can0 0A6#0700060004000000
(1706595996.775797) can0 0A5#BE0610001B003AFF
(1706595996.775798) can0 0A4#0000000000000000
(1706595996.775798) can0 0A3#EBB5C71EECB9D71E
(1706595996.775991) can0 05A#5E5E5E5E5F5F5E5F
(1706595996.782010) can0 6B1#00000000151314F5
(1706595996.782187) can0 03A#5E5E5E5F5E5E5E5F
(1706595996.782187) can0 0A6#F9FFF8FFFCFF0000
(1706595996.782187) can0 0A5#3805BBFF8CFF3EFF
(1706595996.782187) can0 0A4#0000000000000000
(1706595996.782188) can0 0A3#ECB5C71EECB9E71E
(1706595996.785545) can0 01A#5E5F5F5E5F5E5E5F
(1706595996.797419) can0 02B#5E5E5E5E5E5E5E5E
(1706595996.797631) can0 6B2#0000B809B8093461
(1706595996.798567) can0 01B#5E5F5E5F5F5F5E5F
(1706595996.798567) can0 1839F380#00131514470001C5
(1706595996.799216) can0 068#6800000101000000
(1706595996.799217) can0 0C0#0000000001000000
(1706595996.799218) can0 0C7#01914ADAC2C1018D
(1706595996.799218) can0 0AD#1500000000000000
(1706595996.799218) can0 0AC#0000FDFF97E00D00
(1706595996.799849) can0 0AB#0000000000180040
(1706595996.799850) can0 0AA#0700090000008002
(1706595996.799851) can0 0A8#2200AE52F3FFFAFF
(1706595996.799852) can0 0A7#020000000700FCFF
(1706595996.799853) can0 0A6#F9FFF8FFFCFF0000
(1706595996.799945) can0 0A5#D704E1FFCCFF49FF
(1706595996.799945) can0 0A4#0000000000000000
(1706595996.799945) can0 0A3#ECB1C71EEBB5E71E
(1706595996.799946) can0 0C4#220022002D059000
(1706595996.799946) can0 0C6#0000000000000000
(1706595996.800574) can0 03B#5E5F5E5E5E5E5E5F
(1706595996.806081) can0 05B#5E5F5E5E5E5E5E5F
(1706595996.810795) can0 06B#5E5E5E5E5E5E5E5E
(1706595996.815590) can0 04B#5E5E5F5E5F5E5E5F
(1706595996.842791) can0 6B2#0000B809B8093461
(1706595996.842792) can0 0AB#0000000000180040
(1706595996.842792) can0 0AA#0700090000008002
(1706595996.842793) can0 0A8#2200AE520E00FFFF
(1706595996.842793) can0 0A7#0500000000000300
(1706595996.843759) can0 0A6#0A00030007000000
(1706595996.843759) can0 0A5#74050B00120051FF
(1706595996.843759) can0 0A4#0000000000000000
(1706595996.843760) can0 0A3#ECB1C71EECB1E71E
(1706595996.846628) can0 068#6800000101000000
(1706595996.846629) can0 0C0#0000000001000000
(1706595996.846629) can0 0C7#01914AD9C1C3018D
(1706595996.847766) can0 0C4#220022002D058F00
(1706595996.847766) can0 0C6#0000000000000000
(1706595996.847766) can0 202#0000000000000000
(1706595996.887636) can0 6B1#00000000151314F5
(1706595996.890544) can0 6B2#0000B809B8093561
(1706595996.896284) can0 0C3#1000093C000000
(1706595996.896285) can0 0C8#FD6BD30000000000
(1706595996.896285) can0 0D4#0000000500000000
(1706595996.896286) can0 068#6800000101000000
(1706595996.896286) can0 0AC#00000000B8E00D00
(1706595996.897409) can0 0C0#0000000001000000
(1706595996.897409) can0 0C7#01914AD9C1C3018D
(1706595996.897410) can0 1839F380#00131514470001C5
(1706595996.897410) can0 0C4#220022002D058F00
(1706595996.897528) can0 0C6#0000000000000000
(1706595996.905438) can0 0AD#5C00000000000000
(1706595996.905439) can0 0AC#0000FFFFBBE00D00
(1706595996.905439) can0 0AB#0000000000180040
(1706595996.905440) can0 0AA#0700090000008002
(1706595996.905440) can0 0A8#2200AE520800FDFF
(1706595996.906576) can0 0A7#0600000001000600
(1706595996.906577) can0 0A6#0700000004000000
(1706595996.906577) can0 0A5#D5051B002C0036FF
(1706595996.906578) can0 0A4#0000000000000000
(1706595996.906578) can0 0A3#ECB1D71EEDB5E71E
(1706595996.914222) can0 0AD#3300000000000000
(1706595996.914223) can0 0AC#00000000BEE00D00
(1706595996.914223) can0 0AB#0000000000180040
(1706595996.914223) can0 0AA#0700090000008002
(1706595996.914223) can0 0A8#2200AE52FEFF0000
(1706595996.915445) can0 0A7#0600000007000100
(1706595996.915446) can0 0A6#FFFFFEFFF9FF0000
(1706595996.915446) can0 0A5#36061E00320031FF
(1706595996.915446) can0 0A4#0000000000000000
(1706595996.915446) can0 0A3#ECB1D71EEDB5E71E
(1706595996.923219) can0 0AD#7000000000000000
(1706595996.923220) can0 0AC#00000100C1E00D00
(1706595996.923220) can0 0AB#0000000000180040
(1706595996.923220) can0 0AA#0700090000008002
(1706595996.923220) can0 0A8#2200AE52F6FF0200
(1706595996.924498) can0 0A7#0500000003000100
(1706595996.924498) can0 0A6#F9FFFCFF00000000
(1706595996.924498) can0 0A5#3406FBFFF7FF31FF
(1706595996.924498) can0 0A4#0000000000000000
(1706595996.924499) can0 0A3#ECB1C71EEDB5E71E
(1706595996.932535) can0 0AD#8000000000000000
(1706595996.932535) can0 0AC#00000000C4E00D00
(1706595996.932536) can0 0AB#0000000000180040
(1706595996.932536) can0 0AA#0700090000008002
(1706595996.932536) can0 0A8#2200AE5202000000
(1706595996.933659) can0 0A7#0400000003000300
(1706595996.933659) can0 0A6#0100010005000000
(1706595996.933660) can0 0A5#3905E3FFD0FF36FF
(1706595996.933660) can0 0A4#0000000000000000
(1706595996.933660) can0 0A3#ECB5C71EECB5E71E
(1706595996.938796) can0 6B2#0000B809B8093461
(1706595996.961459) can0 068#6800000101000000
(1706595996.961460) can0 0C0#0000000001000000
(1706595996.961461) can0 0C7#01914ADAC3C2018D
(1706595996.961664) can0 0C4#220022002D058E00
(1706595996.961665) can0 0C6#0000000000000000
(1706595996.988782) can0 6B1#00000000151314F5
(1706595996.988783) can0 0AB#0000000000180040
(1706595996.988784) can0 6B2#0000B809B8093461
(1706595996.996066) can0 1839F380#00131514470001C5
(1706595996.996067) can0 0A8#2200AE52F8FF0000
(1706595996.996067) can0 068#6800000101000000
(1706595996.996067) can0 0A7#060000000E000000
(1706595996.996226) can0 0C0#0000000001000000
(1706595996.997317) can0 0C7#01914ADAC3C2018D
(1706595996.997318) can0 0C4#220022002D058F00
(1706595996.997318) can0 0C6#0000000000000000
(1706595997.034542) can0 6B2#0000B809B8093461
(1706595997.057424) can0 0AD#0400000000000000
(1706595997.057424) can0 0AC#00000000E8E00D00
(1706595997.057425) can0 0AB#0000000000180040
(1706595997.057425) can0 0AA#0700090000008002
(1706595997.057426) can0 0A8#2200AE5203000000
(1706595997.057621) can0 0A7#0500000001000600
(1706595997.057621) can0 0A6#0200010004000000
(1706595997.057622) can0 0A5#E805180027001AFF
(1706595997.057623) can0 0A4#0000000000000000
(1706595997.057623) can0 0A3#ECB5C71EECB5E71E
(1706595997.058578) can0 068#6800000101000000
(1706595997.058579) can0 0C7#01914AD9C0C2018D
(1706595997.058579) can0 0C0#0000000001000000
(1706595997.058821) can0 0C4#220022002D058F00
(1706595997.058838) can0 0C6#0000000000000000
(1706595997.082693) can0 6B2#0000B809B8093461
(1706595997.085722) can0 0AD#7800000000000000
(1706595997.085723) can0 0AC#0000FFFFF7E00D00
(1706595997.085723) can0 0AB#0000000000180040
(1706595997.085723) can0 0AA#0700090000008002
(1706595997.085723) can0 0A8#2200AE5212000400
(1706595997.086585) can0 0A7#0500000003000800
(1706595997.086585) can0 0A6#08000A0007000000
(1706595997.086585) can0 0A5#7A05E4FFD1FF0FFF
(1706595997.086586) can0 0A4#0000000000000000
(1706595997.086586) can0 0A3#EBB5C71EECB5D71E
(1706595997.090674) can0 6B1#00000000151314F5
(1706595997.096056) can0 1839F380#00131514470001C5
(1706595997.096057) can0 0A4#0000000000000000
(1706595997.096058) can0 0A3#EBB5B71EECB5D71E
(1706595997.096058) can0 068#6800000101000000
(1706595997.096145) can0 0C0#0000000001000000
(1706595997.097180) can0 0C7#01914AD9C0C2018D
(1706595997.097180) can0 0C4#220022002D059500
(1706595997.097180) can0 0C6#0000000000000000
(1706595997.130293) can0 0AD#9D00000000000000
(1706595997.130294) can0 0AC#0000020006E10D00
(1706595997.130294) can0 6B2#0000B809B8093461
(1706595997.146914) can0 068#6800000101000000
(1706595997.146915) can0 0C0#0000000001000000
(1706595997.146916) can0 0C7#01914ADAC1C3018D
(1706595997.147935) can0 0C4#220022002D058F00
(1706595997.147935) can0 0C6#0000000000000000
(1706595997.178689) can0 6B2#0000B809B8093461
(1706595997.195344) can0 6B1#00000000151314F5
(1706595997.195345) can0 0A6#FFFFFFFFFBFF0000
(1706595997.195346) can0 0A5#13060200030029FF
(1706595997.195346) can0 0A4#0000000000000000
(1706595997.195346) can0 0A3#ECB5C71EEBB1E71E
(1706595997.196408) can0 1839F380#00131514470001C5
(1706595997.196409) can0 068#6800000101000000
(1706595997.196409) can0 0C0#0000000001000000
(1706595997.196409) can0 0C7#01914ADAC1C3018D
(1706595997.197651) can0 0C4#220022002D058F00
(1706595997.197651) can0 0C6#0000000000000000
(1706595997.202223) can0 0AD#7D00000000000000
(1706595997.202224) can0 0AC#000000001EE10D00
(1706595997.202224) can0 0AB#0000000000180040
(1706595997.202225) can0 0AA#0700090000008002
(1706595997.202225) can0 0A8#2200AE5200000000
(1706595997.203404) can0 0A7#060000000300F7FF
(1706595997.203405) can0 0A6#FFFF0000FEFF0000
(1706595997.203405) can0 0A5#F6062A00460025FF
(1706595997.203405) can0 0A4#0000000000000000
(1706595997.203406) can0 0A3#ECB1C71EECB5E71E
(1706595997.211212) can0 0AD#5900000000000000
(1706595997.211213) can0 0AC#0000010021E10D00
(1706595997.211213) can0 0AB#0000000000180040
(1706595997.211214) can0 0AA#0700090000008002
(1706595997.211214) can0 0A8#2200AE5205000200
(1706595997.212408) can0 0A7#0500000000000000
(1706595997.212409) can0 0A6#0000030000000000
(1706595997.212409) can0 0A5#9105D2FFB4FF29FF
(1706595997.212409) can0 0A4#0000000000000000
(1706595997.212410) can0 0A3#EBB1C71EECB5E71E
(1706595997.220422) can0 0AD#0F00000000000000
(1706595997.220423) can0 0AC#0000FFFF24E10D00
(1706595997.220423) can0 0AB#0000000000180040
(1706595997.220424) can0 0AA#0700090000008002
(1706595997.220424) can0 0A8#2200AE520A00FDFF
(1706595997.222188) can0 0A7#05000000FBFF0000
(1706595997.222189) can0 0A6#0600030005000000
(1706595997.222190) can0 0A5#2706040006002DFF
(1706595997.222190) can0 0A4#0000000000000000
(1706595997.222190) can0 0A3#EBB5C71EEBB1E71E
(1706595997.226643) can0 6B2#0000B809B8093461
(1706595997.246533) can0 068#6800000101000000
(1706595997.246534) can0 0C7#01914AD9C0C3018D
(1706595997.246534) can0 0C0#0000000001000000
(1706595997.247811) can0 0C4#220022002D059900
(1706595997.247811) can0 0C6#0000000000000000
(1706595997.292290) can0 6B2#0000B809B8093461
(1706595997.292291) can0 0AB#0000000000180040
(1706595997.292291) can0 0AA#0700090000008002
(1706595997.292291) can0 0A8#2200AE52F3FF0500
(1706595997.292292) can0 0A7#05000000F9FF0300
(1706595997.293027) can0 0A6#F6FFFCFF01000000
(1706595997.293027) can0 0A5#3D062200370042FF
(1706595997.293028) can0 0A4#0000000000000000
(1706595997.293028) can0 0A3#ECB5C71EECB5E71E
(1706595997.294507) can0 0AD#9F00000000000000
(1706595997.294507) can0 0AC#0000FEFF39E10D00
(1706595997.294508) can0 0AB#0000000000180040
(1706595997.294508) can0 0AA#0700090000008002
(1706595997.294513) can0 0A8#2200AE520800FBFF
(1706595997.295048) can0 0A7#02000000FDFF0100
(1706595997.295048) can0 0A6#0700010004000000
(1706595997.295048) can0 0A5#5E06FDFFFBFF3AFF
(1706595997.295048) can0 0A4#0000000000000000
(1706595997.295048) can0 0A3#ECB5C71EEBB1E71E
(1706595997.295785) can0 0AD#3C00000000000000
(1706595997.295785) can0 0AC#000000003CE10D00
(1706595997.295785) can0 0AB#0000000000180040
(1706595997.295785) can0 0AA#0700090000008002
(1706595997.295786) can0 0A8#2200AE5205000100
(1706595997.295888) can0 0A7#07000000FDFFFCFF
(1706595997.295891) can0 0A6#01000400FFFF0000
(1706595997.295891) can0 0A5#DE05E9FFDAFF36FF
(1706595997.295891) can0 0A4#0000000000000000
(1706595997.295892) can0 0A3#ECB5C71EEBB1E71E
(1706595997.296437) can0 1839F380#00131514470001C5
(1706595997.296437) can0 068#6800000101000000
(1706595997.296437) can0 0C0#0000000001000000
(1706595997.297133) can0 0C7#01914AD9C0C3018D
(1706595997.297134) can0 0C4#220022002D059100
(1706595997.297134) can0 0C6#0000000000000000
(1706595997.298367) can0 6B1#00000000151314F5
(1706595997.322865) can0 6B2#0000B809B8093461
(1706595997.346600) can0 068#6800000101000000
(1706595997.346601) can0 0AC#0000FFFF4EE10D00
(1706595997.346601) can0 0C0#0000000001000000
(1706595997.346601) can0 0C7#00914ADBC2C2018D
(1706595997.358061) can0 0C4#220022002D059400
(1706595997.358062) can0 0C6#0000000000000000
(1706595997.358062) can0 202#0000000000000000
(1706595997.381505) can0 6B2#0000B809B8093461
(1706595997.381734) can0 0AD#3000000000000000
(1706595997.381735) can0 0AC#0000000057E10D00
(1706595997.381735) can0 0AB#0000000000180040
(1706595997.381735) can0 0AA#0700090000008002
(1706595997.381735) can0 0A8#2200AE52FBFFFFFF
(1706595997.382453) can0 0A7#0400000001000100
(1706595997.382454) can0 0A6#FFFFFCFF00000000
(1706595997.382454) can0 0A5#FB0507000B0040FF
(1706595997.382454) can0 0A4#0000000000000000
(1706595997.382454) can0 0A3#ECB5B71EECB5D71E
(1706595997.396328) can0 1839F380#00131514470001C5
(1706595997.396329) can0 068#6800000101000000
(1706595997.396329) can0 0C0#0000000001000000
(1706595997.398953) can0 0C7#00914ADBC2C2018D
(1706595997.398954) can0 0C4#220022002D058F00
(1706595997.398954) can0 0C6#0000000000000000
(1706595997.402731) can0 6B1#00000000151314F5
(1706595997.428433) can0 0AD#5D00000000000000
(1706595997.428433) can0 0AC#0000FEFF63E10D00
(1706595997.428434) can0 0AB#0000000000180040
(1706595997.428434) can0 0AA#0700090000008002
(1706595997.428434) can0 0A8#2200AE520800FCFF
(1706595997.428977) can0 0A7#050000000500FEFF
(1706595997.428977) can0 0A6#0700010008000000
(1706595997.428977) can0 0A5#09061800280044FF
(1706595997.428978) can0 0A4#0000000000000000
(1706595997.428978) can0 0A3#ECB5C71EECB5E71E
(1706595997.429888) can0 0AD#3400000000000000
(1706595997.429888) can0 0AC#0000010066E10D00
(1706595997.429894) can0 0AB#0000000000180040
(1706595997.429894) can0 6B2#0000B809B8093461
(1706595997.430156) can0 3FF#29B82A5C00000000
(1706595997.446633) can0 068#6800000101000000
(1706595997.446634) can0 0C0#0000000001000000
(1706595997.446634) can0 0A7#0200000000000300
(1706595997.446634) can0 0A6#0700070008000000
(1706595997.446634) can0 0A5#E505EDFFE0FF4EFF
(1706595997.447828) can0 0A4#0000000000000000
(1706595997.447828) can0 0A3#EBB1C71EECB5E71E
(1706595997.447828) can0 0A2#F0D8F0D865050000
(1706595997.447828) can0 0A1#BE00FB07F007F0D8
(1706595997.447829) can0 0A0#AE00AF00AF00BD00
(1706595997.448998) can0 0C4#220022002D059400
(1706595997.448998) can0 0C6#0000000000000000
(1706595997.448998) can0 0C7#01914AD8C2C0018D
(1706595997.466555) can0 6B2#0000B809B8093461
(1706595997.494587) can0 0AD#3C00000000000000
(1706595997.494588) can0 0AC#0000FFFF78E10D00
(1706595997.494588) can0 0AB#0000000000180040
(1706595997.494588) can0 0AA#0700090000008002
(1706595997.494588) can0 0A8#2200AE520C00FEFF
(1706595997.494800) can0 0A7#02000000FDFF0600
(1706595997.494801) can0 0A6#0A00000005000000
(1706595997.494801) can0 0A5#5E05C8FFA3FF40FF
(1706595997.494802) can0 0A4#0000000000000000
(1706595997.494802) can0 0A3#EBB1B71EEDB9D71E
(1706595997.495922) can0 0AD#AB00000000000000
(1706595997.495923) can0 0AC#000000007BE10D00
(1706595997.495923) can0 0AB#0000000000180040
(1706595997.495924) can0 0AA#0700090000008002
(1706595997.495924) can0 0A8#2200AE5205000000
(1706595997.496125) can0 0A7#040000000300FEFF
(1706595997.496127) can0 0A6#0400010000000000
(1706595997.496128) can0 0A5#B204E3FFD0FF3EFF
(1706595997.496128) can0 0A4#0000000000000000
(1706595997.496128) can0 0A3#EBB1C71EECB5E71E
(1706595997.496776) can0 0AD#5E00000000000000
(1706595997.496777) can0 0AC#000000007EE10D00
(1706595997.496777) can0 0AB#0000000000180040
(1706595997.496777) can0 0AA#0700090000008002
(1706595997.496783) can0 0A8#2200AE52FAFF0000
(1706595997.497425) can0 0A7#060000000A00FEFF
(1706595997.497426) can0 0A6#FBFFFEFFFCFF0000
(1706595997.497426) can0 0A5#4E05F5FFEDFF38FF
(1706595997.497426) can0 0A4#0000000000000000
(1706595997.497427) can0 0A3#EBB5C71EECB5E71E
(1706595997.497550) can0 02A#5E5E5E5E5E5E5E5E
(1706595997.497551) can0 1839F380#00131514470001C5
(1706595997.497552) can0 068#6800000101000000
(1706595997.497552) can0 0C0#0000000001000000
(1706595997.497707) can0 0C7#01914AD8C2C0018D
(1706595997.498255) can0 0C4#220022002D058F00
(1706595997.498258) can0 0C6#0000000000000000
(1706595997.500421) can0 03A#5F5E5E5F5E5E5E5F
(1706595997.500422) can0 0A6#0100FCFF00000000
(1706595997.500422) can0 0A5#05061700260035FF
(1706595997.500422) can0 0A4#0000000000000000
(1706595997.500422) can0 0A3#EBB5C71EECB5D71E
(1706595997.531289) can0 02B#5E5E5E5E5E5E5E5E
(1706595997.531505) can0 6B1#00000000151314F5
(1706595997.532664) can0 06B#5E5E5E5E5E5E5E5E
(1706595997.533347) can0 6B2#0000B809B8093461
(1706595997.533347) can0 6B3#B300000000000000
(1706595997.533347) can0 06A#5E5E5E5E5E5E5E5E
(1706595997.534017) can0 05B#5E5F5E5E5E5F5E5F
(1706595997.534017) can0 01A#5E5F5F5E5F5E5E5F
(1706595997.534017) can0 0AD#3A00000000000000
(1706595997.534375) can0 0AC#000000008AE10D00
(1706595997.534376) can0 0AB#0000000000180040
(1706595997.534474) can0 0AA#0700090000008002
(1706595997.534475) can0 0A8#2200AE520B000000
(1706595997.534476) can0 0A7#05000000FDFF0800
(1706595997.534476) can0 0A6#070004000A000000
(1706595997.534476) can0 0A5#A8051300200039FF
(1706595997.534607) can0 0A4#0000000000000000
(1706595997.534607) can0 0A3#ECB5C71EECB5E71E
(1706595997.534607) can0 04A#5E5E5E5E5E5E5E5E
(1706595997.535641) can0 01B#5E5F5E5F5F5F5E5F
(1706595997.544211) can0 05A#5E5E5E5E5F5E5E5F
(1706595997.544416) can0 0AD#7A00000000000000
(1706595997.544417) can0 0AE#1000C01915051920
(1706595997.544417) can0 0AC#0000000090E10D00
(1706595997.544418) can0 0AB#0000000000180040
(1706595997.544418) can0 0AA#0700090000008002
(1706595997.545489) can0 0A9#9600FA00F901E104
(1706595997.545490) can0 04B#5E5E5F5E5F5E5E5F
(1706595997.545490) can0 0A8#2200AE52FEFF0000
(1706595997.546560) can0 068#6800000101000000
(1706595997.546561) can0 0C7#00914AD9C1C2018D
(1706595997.546561) can0 0C0#0000000001000000
(1706595997.547800) can0 0C4#220022002D058E00
(1706595997.547800) can0 0C6#0000000000000000
(1706595997.550667) can0 03B#5F5F5E5E5E5E5E5F
(1706595997.562749) can0 6B2#0000B809B8093461
(1706595997.562749) can0 0AA#0700090000008002
(1706595997.562749) can0 0A8#2200AE520A00FCFF
(1706595997.562750) can0 0A7#06000000FDFF0600
(1706595997.562750) can0 0A6#0600030007000000
(1706595997.563910) can0 0A5#5206FCFFFAFF35FF
(1706595997.563910) can0 0A4#0000000000000000
(1706595997.563910) can0 0A3#EBB1D71EECB1F71E
(1706595997.596127) can0 1839F380#00131514470001C5
(1706595997.596128) can0 068#6800000101000000
(1706595997.596128) can0 0C0#0000000001000000
(1706595997.596129) can0 0C7#00914AD9C1C2018D
(1706595997.597711) can0 0C4#220022002D058F00
(1706595997.597712) can0 0C6#0000000000000000
(1706595997.610694) can0 6B1#00000000151314F5
(1706595997.610694) can0 6B2#0000B809B8093461
(1706595997.634351) can0 0AD#5E00000000000000
(1706595997.634352) can0 0AC#00000000AEE10D00
(1706595997.634352) can0 0AB#0000000000180040
(1706595997.634353) can0 0AA#0700090000008002
(1706595997.634353) can0 0A8#2200AE5206000000
(1706595997.635594) can0 0A7#0600000000000100
(1706595997.635594) can0 0A6#0200020006000000
(1706595997.635595) can0 0A5#F7050400070025FF
(1706595997.635595) can0 0A4#0000000000000000
(1706595997.635595) can0 0A3#ECB5C71EECB5D71E
(1706595997.646773) can0 068#6800000101000000
(1706595997.646774) can0 0C0#0000000001000000
(1706595997.646775) can0 0C7#01914ADAC0C2018D
(1706595997.647790) can0 0C4#220022002D059200
(1706595997.647791) can0 0C6#0000000000000000
(1706595997.658640) can0 6B2#0000B809B8093461
(1706595997.661210) can0 0AD#3900000000000000
(1706595997.661211) can0 0AC#00000200B7E10D00
(1706595997.661211) can0 0AB#0000000000180040
(1706595997.661212) can0 0AA#0700090000008002
(1706595997.661212) can0 0A8#2200AE52F4FF0400
(1706595997.662430) can0 0A7#060000000A000000
(1706595997.662430) can0 0A6#F8FFFBFFFCFF0000
(1706595997.662430) can0 0A5#65061400210015FF
(1706595997.662431) can0 0A4#0000000000000000
(1706595997.662431) can0 0A3#ECB5C71EECB5E71E
(1706595997.670340) can0 0AD#2300000000000000
(1706595997.670341) can0 0AC#00000100BAE10D00
(1706595997.670341) can0 0AB#0000000000180040
(1706595997.670341) can0 0AA#0700090000008002
(1706595997.670342) can0 0A8#2200AE5201000200
(1706595997.671456) can0 0A7#0200000003000100
(1706595997.671457) can0 0A6#FEFF030004000000
(1706595997.671458) can0 0A5#EE05F1FFE7FF22FF
(1706595997.671458) can0 0A4#0000000000000000
(1706595997.671458) can0 0A3#ECB5D71EEBB1E71E
(1706595997.679288) can0 0AD#2600000000000000
(1706595997.679289) can0 0AC#00000000BDE10D00
(1706595997.679289) can0 0AB#0000000000180040
(1706595997.679289) can0 0AA#0700090000008002
(1706595997.679289) can0 0A8#2200AE5205000000
(1706595997.680439) can0 0A7#070000000100FEFF
(1706595997.680440) can0 0A6#00000400FCFF0000
(1706595997.680440) can0 0A5#320612001D0028FF
(1706595997.680440) can0 0A4#0000000000000000
(1706595997.680441) can0 0A3#ECB5D71EEBB1E71E
(1706595997.688522) can0 0AD#9400000000000000
(1706595997.688523) can0 0AC#00000000C0E10D00
(1706595997.688524) can0 0AB#0000000000180040
(1706595997.688524) can0 0AA#0700090000008002
(1706595997.688524) can0 0A8#2200AE520800FFFF
(1706595997.689998) can0 0A7#0500000001000300
(1706595997.689999) can0 0A6#0000070004000000
(1706595997.689999) can0 0A5#0F072200380028FF
(1706595997.689999) can0 0A4#0000000000000000
(1706595997.690000) can0 0A3#ECB5C71EECB5E71E
(1706595997.695985) can0 1839F380#00131514470001C5
(1706595997.695986) can0 068#6800000101000000
(1706595997.695986) can0 0C0#0000000001000000
(1706595997.697152) can0 0C7#01914ADAC0C2018D
(1706595997.697152) can0 0AD#4600000000000000
(1706595997.697153) can0 0AC#00000000C3E10D00
(1706595997.697153) can0 0AB#0000000000180040
(1706595997.697153) can0 0AA#0700090000008002
(1706595997.698361) can0 0A8#2200AE52F7FF0000
(1706595997.698362) can0 0A7#0600000007000100
(1706595997.698362) can0 0A6#FBFFFCFFFFFF0000
(1706595997.698362) can0 0A5#2206E5FFD3FF25FF
(1706595997.698363) can0 0A4#0000000000000000
(1706595997.716212) can0 0A3#EBB5C71EEBB5E71E
(1706595997.716213) can0 0C4#220022002D058F00
(1706595997.716214) can0 0C6#0000000000000000
(1706595997.716438) can0 6B2#0000B809B8093461
(1706595997.717560) can0 6B1#00000000151314F5
(1706595997.717560) can0 0AD#0200000000000000
(1706595997.717560) can0 0AC#00000100C9E10D00
(1706595997.717561) can0 0AB#0000000000180040
(1706595997.718390) can0 0AA#0700090000008002
(1706595997.718390) can0 0A8#2200AE52FBFF0200
(1706595997.718390) can0 0A7#050000000700FCFF
(1706595997.718391) can0 0A6#FBFFFFFF01000000
(1706595997.718391) can0 0A5#6C061D002F002BFF
(1706595997.719248) can0 0A4#0000000000000000
(1706595997.719249) can0 0A3#EBB1C71EECB5D71E
(1706595997.746586) can0 068#6800000101000000
(1706595997.746587) can0 0C7#01914AD9C2C3008D
(1706595997.746587) can0 0C0#0000000001000000
(1706595997.747892) can0 0C4#220022002D058F00
(1706595997.747893) can0 0C6#0000000000000000
(1706595997.754527) can0 6B2#0000B809B8093461
(1706595997.796227) can0 1839F380#00131514470001C5
(1706595997.796228) can0 0AD#4F00000000000000
(1706595997.796228) can0 068#6800000101000000
(1706595997.796228) can0 0AC#00000000E4E10D00
(1706595997.796333) can0 0C0#0000000001000000
(1706595997.797497) can0 0C7#01914AD9C2C3008D
(1706595997.797497) can0 0C4#220022002D059400
(1706595997.797497) can0 0C6#0000000000000000
(1706595997.802856) can0 6B2#0000B809B8093461
(1706595997.806455) can0 0AD#2400000000000000
(1706595997.806457) can0 0AC#00000000E7E10D00
(1706595997.806457) can0 0AB#0000000000180040
(1706595997.806457) can0 0AA#0700090000008002
(1706595997.806457) can0 0A8#2200AE52FEFF0000
(1706595997.806660) can0 0A7#0500000003000600
(1706595997.806661) can0 0A6#FEFFFFFF05000000
(1706595997.806661) can0 0A5#8306F4FFECFF35FF
(1706595997.806661) can0 0A4#0000000000000000
(1706595997.806661) can0 0A3#ECB5C71EECB5D71E
(1706595997.814245) can0 0AD#9500000000000000
(1706595997.814246) can0 0AC#00000100EAE10D00
(1706595997.814246) can0 0AB#0000000000180040
(1706595997.814246) can0 0AA#0700090000008002
(1706595997.814246) can0 0A8#2200AE520A000100
(1706595997.815413) can0 0A7#0600000001000800
(1706595997.815413) can0 0A6#06000400FFFF0000
(1706595997.815413) can0 0A5#2805C0FF95FF37FF
(1706595997.815413) can0 0A4#0000000000000000
(1706595997.815414) can0 0A3#ECB5C71EEBB5E71E
(1706595997.818589) can0 6B1#00000000151314F5
(1706595997.846555) can0 068#6800000101000000
(1706595997.846556) can0 0C0#0000000001000000
(1706595997.846556) can0 0C7#00914AD9C1C2018D
(1706595997.847658) can0 0C4#220022002D059000
(1706595997.847658) can0 0C6#0000000000000000
(1706595997.847659) can0 202#0000000000000000
(1706595997.850484) can0 6B2#0000B809B8093461
(1706595997.850484) can0 0AB#0000000000180040
(1706595997.850484) can0 0AA#0700090000008002
(1706595997.850485) can0 0A8#2200AE520000FFFF
(1706595997.850485) can0 0A7#05000000FDFF0000
(1706595997.851704) can0 0A6#0000000001000000
(1706595997.851704) can0 0A5#FB070500080038FF
(1706595997.851704) can0 0A4#0000000000000000
(1706595997.851704) can0 0A3#ECB5C71EECB5D71E
(1706595997.870894) can0 0AD#7100000000000000
(1706595997.870894) can0 0AC#0000FFFFF9E10D00
(1706595997.870895) can0 0AB#0000000000180040
(1706595997.870895) can0 0AA#0700090000008002
(1706595997.870895) can0 0A8#2200AE520900FDFF
(1706595997.871074) can0 0A7#01000000FDFF0300
(1706595997.871074) can0 0A6#0500030006000000
(1706595997.871074) can0 0A5#5906B9FF8AFF38FF
(1706595997.871074) can0 0A4#0000000000000000
(1706595997.871075) can0 0A3#ECB5C71EEDB9D71E
(1706595997.871597) can0 0AD#B700000000000000
(1706595997.871597) can0 0AC#00000000FCE10D00
(1706595997.871598) can0 0AB#0000000000180040
(1706595997.871598) can0 0AA#0700090000008002
(1706595997.871598) can0 0A8#2200AE5204000000
(1706595997.872208) can0 0A7#0400000003000600
(1706595997.872209) can0 0A6#02000000FEFF0000
(1706595997.872209) can0 0A5#5B05D6FFBAFF37FF
(1706595997.872209) can0 0A4#0000000000000000
(1706595997.872209) can0 0A3#ECB5C71EEDB9D71E
(1706595997.877222) can0 0AD#5C00000000000000
(1706595997.877223) can0 0AC#0000FEFFFFE10D00
(1706595997.877223) can0 0AB#0000000000180040
(1706595997.877223) can0 0AA#0700090000008002
(1706595997.877223) can0 0A8#2200AE520800FBFF
(1706595997.878479) can0 0A7#0500000000000000
(1706595997.878479) can0 0A6#0500030009000000
(1706595997.878480) can0 0A5#D4062B00460039FF
(1706595997.878480) can0 0A4#0000000000000000
(1706595997.878480) can0 0A3#ECB1C71EECB5E71E
(1706595997.895918) can0 0C3#1000093C000000
(1706595997.895919) can0 0C8#FD6BD30000000000
(1706595997.895919) can0 0D4#0000000500000000
(1706595997.895920) can0 0A8#2200AE520800FBFF
(1706595997.895920) can0 068#6800000101000000
(1706595997.897054) can0 0A6#0200060006000000
(1706595997.897054) can0 0A5#5F07060009003AFF
(1706595997.897054) can0 0A3#EBB5C71EECB5D71E
(1706595997.897054) can0 0A4#0000000000000000
(1706595997.897055) can0 0A7#0400000001000100
(1706595997.898158) can0 0C0#0000000001000000
(1706595997.898158) can0 0C4#220022002D059000
(1706595997.898158) can0 0C6#0000000000000000
(1706595997.898159) can0 0C7#00914AD9C1C2018D
(1706595997.898241) can0 1839F380#00131514470001C5
(1706595997.901464) can0 6B2#0000B809B8093461
(1706595997.904538) can0 0AD#5700000000000000
(1706595997.904538) can0 0AC#0000FEFF08E20D00
(1706595997.904539) can0 0AB#0000000000180040
(1706595997.904539) can0 0AA#0700090000008002
(1706595997.904539) can0 0A8#2200AE521000FCFF
(1706595997.905550) can0 0A7#04000000FDFFFEFF
(1706595997.905550) can0 0A6#0500090007000000
(1706595997.905550) can0 0A5#B806010001003CFF
(1706595997.905551) can0 0A4#0000000000000000
(1706595997.905551) can0 0A3#EBB5C71EECB5D71E
(1706595997.913221) can0 0AD#7500000000000000
(1706595997.913221) can0 0AC#000000000BE20D00
(1706595997.913222) can0 0AB#0000000000180040
(1706595997.913222) can0 0AA#0700090000008002
(1706595997.913222) can0 0A8#2200AE52FDFF0000
(1706595997.914421) can0 0A7#0400000003000300
(1706595997.914421) can0 0A6#FEFFFFFFFFFF0000
(1706595997.914421) can0 0A5#8C0609000F003AFF
(1706595997.914422) can0 0A4#0000000000000000
(1706595997.914422) can0 0A3#EBB5C71EEBB1E71E
(1706595997.922388) can0 0AD#2E00000000000000
(1706595997.922389) can0 0AC#000001000EE20D00
(1706595997.922389) can0 6B1#00000000151314F5
(1706595997.957870) can0 6B2#0000B809B8093461
(1706595997.957871) can0 0C0#0000000001000000
(1706595997.957871) can0 068#6800000101000000
(1706595997.957871) can0 0C7#01914ADBC0C4018D
(1706595997.958052) can0 0C4#220022002D059100
(1706595997.958052) can0 0C6#0000000000000000
(1706595997.995081) can0 6B2#0000B809B8093461
(1706595997.995081) can0 0AB#0000000000180040
(1706595997.995081) can0 0AA#0700090000008002
(1706595997.995082) can0 0A8#2200AE52F5FFFBFF
(1706595997.995082) can0 0A7#0400000003000100
(1706595997.995718) can0 0A6#FBFFF9FFFCFF0000
(1706595997.995719) can0 0A5#4205EAFFDAFF54FF
(1706595997.995719) can0 1839F380#00131514470001C5
(1706595997.995719) can0 068#6800000101000000
(1706595997.996860) can0 0C0#0000000001000000
(1706595997.996860) can0 0C7#01914ADBC0C4018D
(1706595997.996860) can0 0C4#220022002D05A500
(1706595997.998190) can0 0C6#0000000000000000
(1706595998.026568) can0 6B1#00000000151314F5
(1706595998.030403) can0 0AD#6C00000000000000
(1706595998.030404) can0 0AC#0000010032E20D00
(1706595998.030404) can0 0AB#0000000000180040
(1706595998.030404) can0 0AA#0700090000008002
(1706595998.030404) can0 0A8#2200AE52FEFF0200
(1706595998.031463) can0 0A7#0500000000000100
(1706595998.031463) can0 0A6#FCFF020002000000
(1706595998.031464) can0 0A5#A805E1FFCCFF45FF
(1706595998.031464) can0 0A4#0000000000000000
(1706595998.031464) can0 0A3#EBB5C71EECB5D71E
(1706595998.039259) can0 0AD#0A00000000000000
(1706595998.039260) can0 0AE#1000C01915051920
(1706595998.039260) can0 0AC#0000000035E20D00
(1706595998.039260) can0 0AB#0000000000180040
(1706595998.039260) can0 0AA#0700090000008002
(1706595998.040361) can0 0A9#9600FA00F901DF04
(1706595998.040362) can0 0A8#2200AE5204000000
(1706595998.040362) can0 0A7#0500000005000800
(1706595998.040362) can0 0A6#0200020002000000
(1706595998.040362) can0 0A5#3206130020003DFF
(1706595998.041996) can0 0A4#0000000000000000
(1706595998.041996) can0 0A3#EBB5C71EECB5E71E
(1706595998.041996) can0 0A2#F0D8F0D865050000
(1706595998.041996) can0 0A1#BE00FB07F007F0D8
(1706595998.041996) can0 0A0#AE00AF00AE00BD00
(1706595998.070876) can0 6B2#0000B809B8093461
(1706595998.071085) can0 068#6800000101000000
(1706595998.071086) can0 0C0#0000000001000000
(1706595998.071086) can0 0C7#01914ADAC3C1018D
(1706595998.071653) can0 0C4#220022002D058E00
(1706595998.071653) can0 0C6#0000000000000000
(1706595998.090858) can0 6B2#0000B809B8093461
(1706595998.093203) can0 0AD#AA00000000000000
(1706595998.093204) can0 0AC#0000000047E20D00
(1706595998.093204) can0 0AB#0000000000180040
(1706595998.093204) can0 0AA#0700090000008002
(1706595998.093204) can0 0A8#2200AE52FCFF0100
(1706595998.094383) can0 0A7#0200000000000300
(1706595998.094383) can0 0A6#FDFF000000000000
(1706595998.094383) can0 0A5#F2051A002C0040FF
(1706595998.094384) can0 0A4#0000000000000000
(1706595998.094384) can0 0A3#EBB5C71EECB5E71E
(1706595998.095921) can0 1839F380#00131514470001C5
(1706595998.095921) can0 068#6800000101000000
(1706595998.095922) can0 0C0#0000000001000000
(1706595998.097472) can0 0C7#01914ADAC3C1018D
(1706595998.097473) can0 0C4#220022002D059C00
(1706595998.097473) can0 0C6#0000000000000000
(1706595998.130776) can0 6B1#00000000151314F5
(1706595998.130776) can0 0A5#2906ECFFDEFF3CFF
(1706595998.130777) can0 0A4#0000000000000000
(1706595998.130777) can0 0A3#EBB1B71EECB1D71E
(1706595998.163092) can0 6B2#0000B809B8093461
(1706595998.163292) can0 068#6800000101000000
(1706595998.163292) can0 0C0#0000000001000000
(1706595998.163293) can0 0C7#01914AD8C2C2018D
(1706595998.163293) can0 0AD#9200000000000000
(1706595998.163293) can0 0AC#0000000059E20D00
(1706595998.164317) can0 0AB#0000000000180040
(1706595998.164317) can0 0AA#0700090000008002
(1706595998.164318) can0 0A8#2200AE520F000000
(1706595998.164318) can0 0A7#07000000FDFFFEFF
(1706595998.164318) can0 0A6#FBFF040008000000
(1706595998.164539) can0 0A5#5805EAFFDBFF3BFF
(1706595998.164540) can0 0A4#0000000000000000
(1706595998.164540) can0 0A3#EBB1C71EECB5D71E
(1706595998.164540) can0 0C4#220022002D058F00
(1706595998.164541) can0 0C6#0000000000000000
(1706595998.202165) can0 6B2#0000B809B8093461
(1706595998.202345) can0 0AD#2500000000000000
(1706595998.202345) can0 0AC#0000000068E20D00
(1706595998.202346) can0 0AB#0000000000180040
(1706595998.202346) can0 0AA#0700090000008002
(1706595998.202346) can0 0A8#2200AE52FAFF0100
(1706595998.202875) can0 0A7#010000000500FEFF
(1706595998.202876) can0 0A6#FBFFFFFFFFFF0000
(1706595998.202876) can0 0A5#B205DEFFC7FF20FF
(1706595998.202876) can0 0A4#0000000000000000
(1706595998.202876) can0 0A3#EBB5B71EEDB9D71E
(1706595998.203381) can0 1839F380#00131514470001C5
(1706595998.203383) can0 068#6800000101000000
(1706595998.203383) can0 0C7#01914AD8C2C2018D
(1706595998.203383) can0 0C0#0000000001000000
(1706595998.203894) can0 0C4#220022002D059500
(1706595998.203895) can0 0C6#0000000000000000
(1706595998.203895) can0 0AD#9300000000000000
(1706595998.203895) can0 0AC#000000006BE20D00
(1706595998.203895) can0 0AB#0000000000180040
(1706595998.204317) can0 0AA#0700090000008002
(1706595998.204318) can0 0A8#2200AE520D000100
(1706595998.204318) can0 0A7#02000000FDFF0000
(1706595998.204319) can0 0A6#090004000A000000
(1706595998.204320) can0 0A5#1505F5FFEEFF26FF
(1706595998.204419) can0 0A4#0000000000000000
(1706595998.204420) can0 0A3#EBB5C71EECB5D71E
(1706595998.228201) can0 0AD#0C00000000000000
(1706595998.228202) can0 0AC#0000000074E20D00
(1706595998.228202) can0 0AB#0000000000180040
(1706595998.228202) can0 0AA#0700090000008002
(1706595998.228202) can0 0A8#2200AE5202000000
(1706595998.229442) can0 0A7#0500000000000000
(1706595998.229442) can0 0A6#00000000F9FF0000
(1706595998.229443) can0 0A5#6D05E1FFCCFF3BFF
(1706595998.229443) can0 0A4#0000000000000000
(1706595998.229443) can0 0A3#ECB1C71EECB1E71E
(1706595998.234579) can0 6B1#00000000151314F5
(1706595998.234580) can0 6B2#0000B809B8093461
(1706595998.234580) can0 02A#5E5E5E5E5E5E5E5E
(1706595998.240706) can0 06A#5E5E5E5E5E5E5E5E
(1706595998.245573) can0 04A#5E5E5E5E5E5E5E5E
(1706595998.245573) can0 068#6800000101000000
(1706595998.265311) can0 0AB#0000000000180040
(1706595998.265312) can0 0C0#0000000001000000
(1706595998.265312) can0 0C7#01914AD8C3C2018D
(1706595998.265313) can0 0C4#220022002D058F00
(1706595998.265504) can0 0C6#0000000000000000
(1706595998.266522) can0 05A#5E5E5F5E5F5E5E5F
(1706595998.267300) can0 0AD#6F00000000000000
(1706595998.267300) can0 0AC#000000007DE20D00
(1706595998.267300) can0 03A#5E5E5F5E5E5E5E5F
(1706595998.268086) can0 01A#5E5F5E5E5F5E5E5F
(1706595998.268086) can0 02B#5E5E5E5E5E5E5E5E
(1706595998.268087) can0 0A6#0000FFFF04000000
(1706595998.268088) can0 0A5#B6062600400039FF
(1706595998.268088) can0 0A4#0000000000000000
(1706595998.268224) can0 0A3#EBB1C71EECB5E71E
(1706595998.270661) can0 01B#5E5F5E5E5F5F5E5F
(1706595998.275420) can0 03B#5E5E5E5E5E5E5E5E
(1706595998.295809) can0 05B#5F5E5E5E5E5E5E5F
(1706595998.296027) can0 6B2#0000B809B8093461
(1706595998.297132) can0 06B#5E5F5E5E5E5E5E5F
(1706595998.298826) can0 04B#5E5E5F5E5F5E5E5F
(1706595998.299800) can0 1839F380#00131514470001C5
(1706595998.299800) can0 068#6800000101000000
(1706595998.299801) can0 0C0#0000000001000000
(1706595998.299801) can0 0C7#01914AD8C3C2018D
(1706595998.300468) can0 0C4#220022002D058F00
(1706595998.300469) can0 0C6#0000000000000000
(1706595998.327416) can0 0AD#0700000000000000
(1706595998.327417) can0 0AC#0000FEFF95E20D00
(1706595998.327418) can0 0AB#0000000000180040
(1706595998.327418) can0 0AA#0700090000008002
(1706595998.327418) can0 0A8#2200AE521000F8FF
(1706595998.328653) can0 0A7#06000000FBFF0000
(1706595998.328653) can0 0A6#0A00070001000000
(1706595998.328654) can0 0A5#A906460074003EFF
(1706595998.328654) can0 0A4#0000000000000000
(1706595998.328654) can0 0A3#EBB1C71EEBB1E71E
(1706595998.330636) can0 6B2#0000B809B8093461
(1706595998.353637) can0 6B1#00000000151314F5
(1706595998.353638) can0 0A4#0000000000000000
(1706595998.353639) can0 0A3#EBB5C71EEBB1E71E
(1706595998.353639) can0 0A2#F0D8F0D865050000
(1706595998.353639) can0 0A1#BE00FB07F007F0D8
(1706595998.353823) can0 0A0#AD00AF00AF00BD00
(1706595998.354640) can0 068#6800000101000000
(1706595998.354642) can0 0A6#FFFF0100FFFF0000
(1706595998.354643) can0 0A5#D506FAFFF6FF4AFF
(1706595998.354643) can0 0A4#0000000000000000
(1706595998.354643) can0 0A3#EBB5C71EECB5E71E
(1706595998.354817) can0 0C0#0000000001000000
(1706595998.354818) can0 0C4#220022002D058F00
(1706595998.354819) can0 0C6#0000000000000000
(1706595998.354819) can0 0C7#01914ADAC1C2018D
(1706595998.354820) can0 202#0000000000000000
(1706595998.393596) can0 6B2#0000B809B8093461
(1706595998.393804) can0 0AD#2F00000000000000
(1706595998.393805) can0 0AC#0000FFFFA7E20D00
(1706595998.393805) can0 0AB#0000000000180040
(1706595998.393805) can0 0AA#0700090000008002
(1706595998.393806) can0 0A8#2200AE52F8FFFEFF
(1706595998.394479) can0 0A7#0400000003000600
(1706595998.394479) can0 0A6#0000F8FFFCFF0000
(1706595998.394480) can0 0A5#AB063B0062005DFF
(1706595998.394480) can0 0A4#0000000000000000
(1706595998.394480) can0 0A3#ECB5C71EECB5D71E
(1706595998.395988) can0 1839F380#00131514470001C5
(1706595998.395989) can0 068#6800000101000000
(1706595998.395989) can0 0C0#0000000001000000
(1706595998.397488) can0 0C7#01914ADAC1C2018D
(1706595998.397489) can0 0C4#220022002D059100
(1706595998.397489) can0 0C6#0000000000000000
(1706595998.399165) can0 0AD#4700000000000000
(1706595998.399166) can0 0AC#00000000ADE20D00
(1706595998.399166) can0 0AB#0000000000180040
(1706595998.399166) can0 0AA#0700090000008002
(1706595998.399166) can0 0A8#2200AE520600FFFF
(1706595998.400859) can0 0A7#0600000000000000
(1706595998.400859) can0 0A6#0200030003000000
(1706595998.400859) can0 0A5#3906E2FFCEFF68FF
(1706595998.400860) can0 0A4#0000000000000000
(1706595998.400860) can0 0A3#EBB1C71EEBB5E71E
(1706595998.408398) can0 0AD#6C00000000000000
(1706595998.408398) can0 0AC#0000FFFFB0E20D00
(1706595998.408398) can0 0AB#0000000000180040
(1706595998.408399) can0 0AA#0700090000008002
(1706595998.408399) can0 0A8#2200AE520500FCFF
(1706595998.409668) can0 0A7#00000000FDFF0F00
(1706595998.409668) can0 0A6#02000200FEFF0000
(1706595998.409668) can0 0A5#1D070D0016006CFF
(1706595998.409668) can0 0A4#0000000000000000
(1706595998.409669) can0 0A3#EBB1D71EECB5E71E
(1706595998.417302) can0 0AD#2A00000000000000
(1706595998.417303) can0 0AC#00000000B3E20D00
(1706595998.417303) can0 0AB#0000000000180040
(1706595998.417303) can0 0AA#0700090000008002
(1706595998.417304) can0 0A8#2200AE52F6FFFFFF
(1706595998.419740) can0 0A7#0600000007000600
(1706595998.419741) can0 0A6#FEFFF8FFF8FF0000
(1706595998.419741) can0 0A5#5106D4FFB6FF6CFF
(1706595998.419742) can0 0A4#0000000000000000
(1706595998.419742) can0 0A3#EBB5D71EECB5E71E
(1706595998.424808) can0 3FF#2AB82A5C00000000
(1706595998.426610) can0 0AD#5200000000000000
(1706595998.426610) can0 0AC#0000FEFFB6E20D00
(1706595998.426610) can0 6B2#0000B809B8093461
(1706595998.442458) can0 6B1#00000000151314F5
(1706595998.446905) can0 068#6800000101000000
(1706595998.446906) can0 0C0#0000000001000000
(1706595998.446907) can0 0C7#01914AD9C3C3018D
(1706595998.447912) can0 0C4#220022002D058F00
(1706595998.447913) can0 0C6#0000000000000000
(1706595998.474896) can0 6B2#0000B809B8093461
(1706595998.480274) can0 0AD#8D00000000000000
(1706595998.480275) can0 0AC#0000FFFFC8E20D00
(1706595998.480275) can0 0AB#0000000000180040
(1706595998.480275) can0 0AA#0700090000008002
(1706595998.480276) can0 0A8#2200AE520000FEFF
(1706595998.481643) can0 0A7#0600000007000800
(1706595998.481643) can0 0A6#0100000005000000
(1706595998.481644) can0 0A5#EC06EAFFDAFF7FFF
(1706595998.481644) can0 0A4#0000000000000000
(1706595998.481644) can0 0A3#EBB5B71EEDB9D71E
(1706595998.489247) can0 0AD#8800000000000000
(1706595998.489247) can0 0AC#00000100CBE20D00
(1706595998.489248) can0 0AB#0000000000180040
(1706595998.489248) can0 0AA#0700090000008002
(1706595998.489248) can0 0A8#2200AE52FDFF0200
(1706595998.490458) can0 0A7#04000000FDFF0600
(1706595998.490458) can0 0A6#FCFF000008000000
(1706595998.490459) can0 0A5#9B06020002007DFF
(1706595998.490459) can0 0A4#0000000000000000
(1706595998.490459) can0 0A3#EBB5C71EEBB1D71E
(1706595998.496199) can0 1839F380#00131514470001C5
(1706595998.496199) can0 068#6800000101000000
(1706595998.496200) can0 0C0#0000000001000000
(1706595998.496200) can0 0C7#01914AD9C3C3018D
(1706595998.497705) can0 0C4#220022002D058E00
(1706595998.497705) can0 0C6#0000000000000000
(1706595998.522777) can0 6B2#0000B809B8093461
(1706595998.522778) can0 6B3#B300000000000000
(1706595998.546645) can0 6B1#00000000151314F5
(1706595998.546645) can0 0C0#0000000001000000
(1706595998.546646) can0 068#6800000101000000
(1706595998.546646) can0 0C7#01914AD7C0C4018D
(1706595998.548110) can0 0C4#220022002D058F00
(1706595998.548110) can0 0C6#0000000000000000
(1706595998.570715) can0 6B2#0000B809B8093461
(1706595998.570716) can0 0AB#0000000000180040
(1706595998.570716) can0 0AA#0700090000008002
(1706595998.570717) can0 0A8#2200AE52FFFF0300
(1706595998.570717) can0 0A7#0200000005000300
(1706595998.571721) can0 0A6#FDFF0200F7FF0000
(1706595998.571721) can0 0A5#FC052000340070FF
(1706595998.571721) can0 0A4#0000000000000000
(1706595998.571722) can0 0A3#ECB5C71EECB5D71E
(1706595998.595932) can0 1839F380#00131514470001C5
(1706595998.595932) can0 068#6800000101000000
(1706595998.595933) can0 0C0#0000000001000000
(1706595998.597166) can0 0C7#01914AD7C0C4018D
(1706595998.597167) can0 0AD#B500000000000000
(1706595998.597167) can0 0AC#00000100EFE20D00
(1706595998.597167) can0 0AB#0000000000180040
(1706595998.597167) can0 0AA#0700090000008002
(1706595998.600260) can0 0A8#2200AE5200000300
(1706595998.600261) can0 0A7#0500000001000300
(1706595998.600261) can0 0A6#FDFF000002000000
(1706595998.600261) can0 0A5#90080200020064FF
(1706595998.600261) can0 0A4#0000000000000000
(1706595998.600486) can0 0A3#EBB1C71EEBB5E71E
(1706595998.600486) can0 0C4#220022002D058E00
(1706595998.600486) can0 0C6#0000000000000000
(1706595998.618679) can0 6B2#0000B809B8093461
(1706595998.624225) can0 0AD#0300000000000000
(1706595998.624226) can0 0AC#0000FFFFF8E20D00
(1706595998.624226) can0 0AB#0000000000180040
(1706595998.624226) can0 0AA#0700090000008002
(1706595998.624227) can0 0A8#2200AE520100FEFF
(1706595998.625390) can0 0A7#0700000001000000
(1706595998.625390) can0 0A6#02000000FDFF0000
(1706595998.625391) can0 0A5#71060500080051FF
(1706595998.625391) can0 0A4#0000000000000000
(1706595998.625391) can0 0A3#EBB1C71EECB5D71E
(1706595998.633170) can0 0AD#0300000000000000
(1706595998.633171) can0 0AE#1000C01915051920
(1706595998.633171) can0 0AC#00000000FBE20D00
(1706595998.633171) can0 0AB#0000000000180040
(1706595998.633171) can0 0AA#0700090000008002
(1706595998.634374) can0 0A9#9600FA00FA01E004
(1706595998.634374) can0 0A8#2200AE52FCFFFFFF
(1706595998.634375) can0 0A7#060000000000F0FF
(1706595998.634375) can0 0A6#0100020000000000
(1706595998.634375) can0 0A5#EE05CEFFADFF5AFF
(1706595998.635602) can0 0A4#0000000000000000
(1706595998.635603) can0 0A3#ECB1C71EECB5D71E
(1706595998.635603) can0 0A2#F0D8F0D865050000
(1706595998.635603) can0 0A1#BE00FB07F007F0D8
(1706595998.635603) can0 0A0#AE00AF00AF00BD00
(1706595998.642552) can0 0AD#2700000000000000
(1706595998.642553) can0 0AC#0000FAFFFEE20D00
(1706595998.642553) can0 0AB#0000000000180040
(1706595998.642553) can0 0AA#0700010000008002
(1706595998.642553) can0 0A8#2200AE521100F4FF
(1706595998.643768) can0 0A7#0200000003000800
(1706595998.643768) can0 0A6#0A000A000A000000
(1706595998.643768) can0 0A5#1E07340061005EFF
(1706595998.643769) can0 0A4#0000000000000000
(1706595998.643769) can0 0A3#ECB5C71EECB5D71E
(1706595998.646970) can0 068#6800000101000000
